Time Stamp,ID,Extended,Dir,Bus,LEN,D1,D2,D3,D4,D5,D6,D7,D8
0,00000284,false,Rx,0,8,00,00,00,00,00,00,0F,95,
71,00000174,false,Rx,0,8,FF,EF,FE,AA,0B,00,00,00,
87,00000176,false,Rx,0,7,00,00,02,45,00,00,0B,00,
3994,00000182,false,Rx,0,8,00,00,00,00,00,1D,40,CF,
4012,00000580,false,Rx,0,5,00,82,40,B6,6C,00,00,00,
8057,00000215,false,Rx,0,6,FF,F4,FF,00,FF,FF,00,00,
8076,000002DE,false,Rx,0,8,02,00,80,04,C0,00,05,D1,
12185,00000245,false,Rx,0,8,FF,E0,00,18,00,00,FF,E1,
12204,00000176,false,Rx,0,7,00,00,02,40,00,00,0C,00,
16302,00000182,false,Rx,0,8,00,00,00,00,00,1E,40,CF,
16319,00000280,false,Rx,0,8,03,40,C0,00,00,00,DE,40,
16323,00000002,false,Rx,0,5,0D,00,00,07,B1,00,00,00,
20384,000002DE,false,Rx,0,8,02,00,80,04,C0,00,05,D1,
20456,00000284,false,Rx,0,8,00,00,00,00,00,00,10,96,
24477,00000174,false,Rx,0,8,FF,EF,FE,AA,0D,00,00,00,
24495,0000060D,false,Rx,0,8,06,06,00,00,00,00,00,00,
24500,00000002,false,Rx,0,5,0D,00,00,07,82,00,00,00,
28521,00000215,false,Rx,0,6,FF,F4,FF,00,FF,FF,00,00,
28540,000002DE,false,Rx,0,8,02,00,80,04,C0,00,05,D1,
32735,00000245,false,Rx,0,8,FF,E0,00,18,00,00,FF,E2,
32763,00000280,false,Rx,0,8,03,3F,C0,00,00,00,D8,40,
36729,000002DE,false,Rx,0,8,02,00,80,04,C0,00,05,D1,
36753,00000002,false,Rx,0,5,0D,00,00,07,93,00,00,00,
40927,000002DE,false,Rx,0,8,02,00,80,04,C0,00,05,D1,
40946,00000177,false,Rx,0,8,FE,10,00,00,00,F8,00,00,
40950,00000216,false,Rx,0,2,42,6C,00,00,00,00,00,00,
44975,000001F9,false,Rx,0,8,28,00,14,82,00,00,51,A8,
44991,00000355,false,Rx,0,7,00,00,00,00,00,00,40,00,
49135,0000035D,false,Rx,0,8,80,03,00,00,10,00,00,00,
49185,00000245,false,Rx,0,8,FF,E0,00,18,00,00,FF,E3,
49209,00000174,false,Rx,0,8,FF,EF,FE,AA,00,00,00,00,
53217,00000421,false,Rx,0,3,08,00,00,00,00,00,00,00,
53233,00000180,false,Rx,0,8,14,82,32,23,3C,00,32,11,
57273,000001F9,false,Rx,0,8,28,00,14,82,00,00,51,A8,
57293,00000002,false,Rx,0,5,0D,00,00,07,F5,00,00,00,
57299,000002DE,false,Rx,0,8,02,00,80,04,C0,00,05,D1,
61376,00000174,false,Rx,0,8,FF,EF,FE,AA,01,00,00,00,
61391,00000177,false,Rx,0,8,FE,10,00,00,00,F8,00,00,
65429,00000216,false,Rx,0,2,42,6C,00,00,00,00,00,00,
65443,00000002,false,Rx,0,5,0D,00,00,07,C6,00,00,00,
65446,00000215,false,Rx,0,6,FF,F4,FF,00,FF,FF,00,00,
69606,000002DE,false,Rx,0,8,02,00,80,04,C0,00,05,D1,
69625,00000245,false,Rx,0,8,FF,E0,00,18,00,00,FF,E0,
73624,00000174,false,Rx,0,8,FF,EF,FE,AA,02,00,00,00,
73638,00000280,false,Rx,0,8,03,3E,C0,00,00,00,D9,40,
77764,00000002,false,Rx,0,5,0D,00,00,07,E4,00,00,00,
77815,00000002,false,Rx,0,5,0D,00,00,07,D7,00,00,00,
77838,00000625,false,Rx,0,6,02,E0,FF,1D,20,00,00,00,
81873,000002DE,false,Rx,0,8,02,00,80,04,C0,00,05,D1,
81889,00000216,false,Rx,0,2,42,6C,00,00,00,00,00,00,
81894,000001F9,false,Rx,0,8,28,00,14,82,00,00,51,A8,
85918,00000355,false,Rx,0,7,00,00,00,00,00,00,40,00,
85934,00000351,false,Rx,0,8,00,00,00,00,00,00,00,06,
90058,00000002,false,Rx,0,5,0D,00,00,07,28,00,00,00,
90076,00000177,false,Rx,0,8,FE,10,00,00,00,F8,00,00,
90081,00000215,false,Rx,0,6,FF,F4,FF,00,FF,FF,00,00,
94116,00000280,false,Rx,0,8,03,3E,C0,00,00,00,D7,40,
94130,00000180,false,Rx,0,8,14,82,32,23,3C,00,36,11,
98270,000005C5,false,Rx,0,8,44,01,CF,E2,00,0C,00,7F,
98322,00000284,false,Rx,0,8,00,00,00,00,00,00,14,9A,
102346,00000177,false,Rx,0,8,FE,10,00,00,00,F8,00,00,
102362,0000054C,false,Rx,0,8,79,78,C0,00,00,80,04,08,
102366,00000216,false,Rx,0,2,42,6C,00,00,00,00,00,00,
106514,00000182,false,Rx,0,8,00,00,00,00,00,17,40,CF,
106565,00000215,false,Rx,0,6,FF,F4,FF,00,FF,FF,00,00,
110507,000002DE,false,Rx,0,8,02,00,80,04,C0,00,05,D1,
110518,00000174,false,Rx,0,8,FF,EF,FE,AA,06,00,00,00,
110522,00000421,false,Rx,0,3,08,00,00,00,00,00,00,00,
114615,00000280,false,Rx,0,8,03,3E,C0,00,00,00,D6,40,
114634,000001F9,false,Rx,0,8,28,00,14,9B,00,00,51,A8,
118745,00000002,false,Rx,0,5,0D,00,00,07,1B,00,00,00,
118765,00000355,false,Rx,0,7,00,00,00,00,00,00,40,00,
122812,00000284,false,Rx,0,8,00,00,00,00,00,00,15,9B,
122829,00000174,false,Rx,0,8,FF,EF,FE,AA,07,00,00,00,
122834,000006E2,false,Rx,0,3,00,00,78,00,00,00,00,00,
126917,0000060D,false,Rx,0,8,06,06,00,00,00,00,00,00,
127007,00000002,false,Rx,0,5,0D,00,00,07,6C,00,00,00,
130969,00000215,false,Rx,0,6,FF,F4,FF,00,FF,FF,00,00,
130982,00000292,false,Rx,0,8,FF,F8,0D,80,0F,FE,0E,00,
130987,00000177,false,Rx,0,8,FE,10,00,00,00,F8,00,00,
135109,00000160,false,Rx,0,7,33,C3,22,00,08,FF,E8,00,
135197,000001F9,false,Rx,0,8,28,00,14,82,00,00,51,A8,
139127,00000002,false,Rx,0,5,0D,00,00,07,7D,00,00,00,
139138,000002DE,false,Rx,0,8,02,00,80,04,C0,00,05,D1,
143324,00000177,false,Rx,0,8,FE,10,00,00,00,F8,00,00,
143340,00000216,false,Rx,0,2,42,6C,00,00,00,00,00,00,
143344,00000160,false,Rx,0,7,33,C3,22,00,08,FF,E8,00,
147394,00000160,false,Rx,0,7,33,C3,22,00,08,FF,E8,00,
147411,0000035D,false,Rx,0,8,80,03,00,00,10,00,00,00,
151432,00000245,false,Rx,0,8,FF,E0,00,18,00,00,FF,E0,
151449,00000177,false,Rx,0,8,FE,10,00,00,00,F8,00,00,
155561,00000180,false,Rx,0,8,14,82,32,23,3C,00,3B,11,
155575,00000280,false,Rx,0,8,03,3F,C0,00,00,00,D5,40,
155579,00000160,false,Rx,0,7,33,C3,22,00,08,FF,E8,00,
159669,00000355,false,Rx,0,7,00,00,00,00,00,00,40,00,
159683,00000176,false,Rx,0,7,00,00,02,45,00,00,0B,00,
163738,00000177,false,Rx,0,8,FE,10,00,00,00,F8,00,00,
163751,00000216,false,Rx,0,2,42,6C,00,00,00,00,00,00,
163755,00000160,false,Rx,0,7,33,C3,22,00,08,FF,E8,00,
167840,00000215,false,Rx,0,6,FF,F4,FF,00,FF,FF,00,00,
167854,00000292,false,Rx,0,8,FF,F8,10,80,0F,FE,0E,00,
171939,00000245,false,Rx,0,8,FF,E0,00,18,00,00,FF,E1,
171953,00000177,false,Rx,0,8,FE,10,00,00,00,F8,00,00,
171956,00000560,false,Rx,0,3,46,15,39,00,00,00,00,00,
176049,000001F9,false,Rx,0,8,28,00,14,9B,00,00,51,A8,
176066,00000625,false,Rx,0,6,02,E0,FF,1D,20,00,00,00,
180156,000002DE,false,Rx,0,8,02,00,80,04,C0,00,05,D1,
180172,00000284,false,Rx,0,8,00,00,00,00,00,00,18,9E,
184243,00000174,false,Rx,0,8,FF,EF,FE,AA,0D,00,00,00,
184258,00000216,false,Rx,0,2,42,6C,00,00,00,00,00,00,
184262,00000180,false,Rx,0,8,14,9B,32,23,3C,00,3F,11,
188364,000001F9,false,Rx,0,8,28,00,14,9B,00,00,51,A8,
188382,00000215,false,Rx,0,6,FF,F4,FF,00,FF,FF,00,00,
192458,00000245,false,Rx,0,8,FF,E0,00,18,00,00,FF,E2,
192477,00000177,false,Rx,0,8,FE,10,00,00,00,F8,00,00,
196596,000005C5,false,Rx,0,8,44,01,CF,E2,00,0C,00,7F,
196612,00000160,false,Rx,0,7,33,C3,22,00,08,FF,E8,00,
196617,00000182,false,Rx,0,8,00,00,00,00,00,10,40,CF,
200641,00000002,false,Rx,0,5,0D,00,00,07,93,00,00,00,
200657,00000216,false,Rx,0,2,42,6C,00,00,00,00,00,00,
200662,00000180,false,Rx,0,8,14,82,32,23,3C,00,3C,11,
204744,00000515,false,Rx,0,4,02,00,00,00,00,00,00,00,
204760,00000182,false,Rx,0,8,00,00,00,00,00,11,40,CF,
208852,00000580,false,Rx,0,5,00,82,40,B2,6C,00,00,00,
208869,00000215,false,Rx,0,6,FF,F4,FF,00,FF,FF,00,00,
208874,00000354,false,Rx,0,8,00,00,00,00,00,18,14,00,
212956,00000245,false,Rx,0,8,FF,E0,00,18,00,00,FF,E3,
212973,00000280,false,Rx,0,8,03,3F,C0,00,00,00,D9,40,
217061,00000160,false,Rx,0,7,33,C3,22,00,08,FF,E8,00,
217077,00000182,false,Rx,0,8,00,00,00,00,00,12,40,CF,
221114,000001F9,false,Rx,0,8,28,00,14,9B,00,00,51,A8,
221130,00000284,false,Rx,0,8,00,00,00,00,00,00,1A,A0,
221134,00000216,false,Rx,0,2,42,6C,00,00,00,00,00,00,
225192,00000160,false,Rx,0,7,33,C3,22,00,08,FF,E8,00,
225207,0000060D,false,Rx,0,8,06,06,00,00,00,00,00,00,
229336,00000160,false,Rx,0,7,33,C3,22,00,08,FF,E8,00,
229352,000001F9,false,Rx,0,8,28,00,14,82,00,00,51,A8,
229356,00000421,false,Rx,0,3,08,00,00,00,00,00,00,00,
233430,00000280,false,Rx,0,8,03,3E,C0,00,00,00,DB,40,
233447,00000180,false,Rx,0,8,14,82,32,23,3C,00,33,11,
237528,00000160,false,Rx,0,7,33,C3,22,00,08,FF,E8,00,
237544,00000285,false,Rx,0,8,00,00,00,00,00,00,1B,A2,
241533,00000284,false,Rx,0,8,00,00,00,00,00,00,1B,A1,
241556,00000177,false,Rx,0,8,FE,10,00,00,00,F8,00,00,
241561,00000216,false,Rx,0,2,42,6C,00,00,00,00,00,00,
245734,0000035D,false,Rx,0,8,80,03,00,00,10,00,00,00,
245751,00000160,false,Rx,0,7,33,C3,22,00,08,FF,E8,00,
249798,00000215,false,Rx,0,6,FF,F4,FF,00,FF,FF,00,00,
249819,00000354,false,Rx,0,8,00,00,00,00,00,00,14,00,
253870,00000245,false,Rx,0,8,FF,E0,00,18,00,00,FF,E1,
253888,00000177,false,Rx,0,8,FE,10,00,00,00,F8,00,00,
253894,00000280,false,Rx,0,8,03,3F,C0,00,00,00,DB,40,
257966,00000160,false,Rx,0,7,33,C3,22,00,08,FF,E8,00,
257984,000001F9,false,Rx,0,8,28,00,14,69,00,00,51,A8,
262059,00000284,false,Rx,0,8,00,00,00,00,00,00,1C,A2,
262076,00000174,false,Rx,0,8,FF,EF,FE,AA,05,00,00,00,
266128,00000358,false,Rx,0,8,00,88,00,00,00,00,00,00,
266144,00000002,false,Rx,0,5,0D,00,00,07,0A,00,00,00,
270246,00000160,false,Rx,0,7,33,D3,22,00,08,FF,E8,00,
270263,000001F9,false,Rx,0,8,28,00,14,69,00,00,51,A8,
270268,00000245,false,Rx,0,8,FF,E0,00,18,00,00,FF,E2,
274346,00000280,false,Rx,0,8,03,3E,C0,00,00,00,D6,40,
274362,00000002,false,Rx,0,5,0D,00,00,07,D7,00,00,00,
278444,00000002,false,Rx,0,5,0D,00,00,07,1B,00,00,00,
278460,00000625,false,Rx,0,6,02,E0,FF,1D,20,00,00,00,
278465,00000160,false,Rx,0,7,33,D3,22,00,08,FF,E8,00,
282578,00000216,false,Rx,0,2,42,6C,00,00,00,00,00,00,
282598,00000180,false,Rx,0,8,14,69,32,23,3D,00,38,11,
286673,00000351,false,Rx,0,8,00,00,00,00,00,00,00,06,
286692,00000002,false,Rx,0,5,0D,00,00,07,6C,00,00,00,
286697,00000215,false,Rx,0,6,FF,F4,FF,00,FF,FF,00,00,
290699,00000182,false,Rx,0,8,00,00,00,00,00,19,40,CF,
290719,00000245,false,Rx,0,8,FF,E0,00,18,00,00,FF,E3,
294842,00000176,false,Rx,0,7,00,00,02,4B,00,00,08,00,
294858,000005C5,false,Rx,0,8,44,01,CF,E2,00,0C,00,7F,
294862,00000002,false,Rx,0,5,0D,00,00,07,7D,00,00,00,
298910,00000160,false,Rx,0,7,33,D3,22,00,08,FF,E8,00,
298925,00000160,false,Rx,0,7,33,D3,22,00,08,FF,E8,00,
303071,00000284,false,Rx,0,8,00,00,00,00,00,00,1E,A4,
303085,00000216,false,Rx,0,2,42,6C,00,00,00,00,00,00,
303088,00000515,false,Rx,0,4,02,00,00,00,00,00,00,00,
307162,00000180,false,Rx,0,8,14,69,32,23,3D,00,3A,11,
307178,00000002,false,Rx,0,5,0D,00,00,07,4E,00,00,00,
307181,00000215,false,Rx,0,6,FF,F4,FF,00,FF,FF,00,00,
311265,00000177,false,Rx,0,8,FE,10,00,00,00,F8,00,00,
311280,00000160,false,Rx,0,7,33,D3,23,00,08,FF,E8,00,
315340,00000280,false,Rx,0,8,03,3F,C0,00,00,00,D9,40,
315355,00000002,false,Rx,0,5,0D,00,01,07,4F,00,00,00,
319463,000002DE,false,Rx,0,8,02,00,80,04,C0,00,05,D1,
319479,00000182,false,Rx,0,8,00,00,00,00,00,1C,40,CF,
319482,00000355,false,Rx,0,7,00,00,00,00,00,00,40,00,
323609,00000177,false,Rx,0,8,FE,10,00,00,00,F8,00,00,
323625,00000216,false,Rx,0,2,42,6C,00,00,00,00,00,00,
323628,00000002,false,Rx,0,5,0D,00,01,07,B0,00,00,00,
327655,00000215,false,Rx,0,6,FF,F4,FF,00,FF,FF,00,00,
327671,000002DE,false,Rx,0,8,02,00,80,04,C0,00,05,D1,
331730,00000180,false,Rx,0,8,14,69,32,23,3D,00,3D,11,
331746,00000174,false,Rx,0,8,FF,EF,FE,AA,0C,00,00,00,
335837,00000280,false,Rx,0,8,03,3F,C0,00,00,00,D9,40,
335853,00000002,false,Rx,0,5,0D,00,00,07,B1,00,00,00,
335856,00000160,false,Rx,0,7,33,D3,22,00,08,FF,E8,00,
339931,000002DE,false,Rx,0,8,02,00,80,04,C0,00,05,D1,
339947,00000284,false,Rx,0,8,00,00,00,00,00,00,20,A6,
343996,00000216,false,Rx,0,2,42,6C,00,00,00,00,00,00,
344012,00000285,false,Rx,0,8,00,00,00,00,00,00,20,A7,
348108,0000035D,false,Rx,0,8,80,03,00,00,10,00,00,00,
348123,00000002,false,Rx,0,5,0D,00,00,07,82,00,00,00,
348127,00000215,false,Rx,0,6,FF,F4,FF,00,FF,FF,00,00,
352220,00000421,false,Rx,0,3,08,00,00,00,00,00,00,00,
352235,000002DE,false,Rx,0,8,02,00,80,04,C0,00,05,D1,
352239,00000280,false,Rx,0,8,03,3D,C0,00,00,00,DB,40,
356304,00000002,false,Rx,0,5,0D,00,00,07,93,00,00,00,
356352,000002DE,false,Rx,0,8,02,00,80,04,C0,00,05,D1,
360357,00000160,false,Rx,0,7,33,D3,22,00,08,FF,E8,00,
360367,00000174,false,Rx,0,8,FF,EF,FE,AA,0F,00,00,00,
364559,00000177,false,Rx,0,8,FE,10,00,00,00,F8,00,00,
364579,00000216,false,Rx,0,2,42,6C,00,00,00,00,00,00,
364584,00000358,false,Rx,0,8,00,88,00,00,00,00,00,00,
368611,00000215,false,Rx,0,6,FF,F4,FF,00,FF,FF,00,00,
368629,00000292,false,Rx,0,8,FF,F8,0B,80,0F,FE,0E,00,
372663,00000245,false,Rx,0,8,FF,E0,00,18,00,00,FF,E3,
372683,00000176,false,Rx,0,7,00,00,02,40,00,00,00,00,
372687,00000560,false,Rx,0,3,46,17,0E,00,00,00,00,00,
376799,00000002,false,Rx,0,5,0D,00,00,07,F5,00,00,00,
376866,00000625,false,Rx,0,6,02,E0,FF,1D,20,00,00,00,
376872,000002DE,false,Rx,0,8,02,00,80,04,C0,00,05,D1,
380823,00000284,false,Rx,0,8,00,00,00,00,00,00,22,A8,
380834,00000180,false,Rx,0,8,14,69,32,33,3D,00,32,11,
384985,00000216,false,Rx,0,2,42,6C,00,00,00,00,00,00,
385088,00000351,false,Rx,0,8,00,00,00,00,00,00,00,06,
385110,00000002,false,Rx,0,5,0D,00,00,07,C6,00,00,00,
389029,00000215,false,Rx,0,6,FF,F4,FF,00,FF,FF,00,00,
389040,000002DE,false,Rx,0,8,02,00,80,04,C0,00,05,D1,
393176,000001F9,false,Rx,0,8,28,00,14,69,00,00,51,A8,
393191,00000280,false,Rx,0,8,03,40,C0,00,00,00,D5,40,
397302,000005C5,false,Rx,0,8,44,01,CF,E2,00,0C,00,7F,
397321,00000285,false,Rx,0,8,00,00,00,00,00,00,21,A8,
397326,00000002,false,Rx,0,5,0D,00,00,07,D7,00,00,00,
401344,000001F9,false,Rx,0,8,28,00,14,69,00,00,51,A8,
401359,00000216,false,Rx,0,2,42,6C,00,00,00,00,00,00,
405455,000002DE,false,Rx,0,8,02,00,80,04,C0,00,05,D1,
405471,00000515,false,Rx,0,4,02,00,00,00,00,00,00,00,
405476,00000215,false,Rx,0,6,FF,F4,FF,00,FF,FF,00,00,
409607,00000292,false,Rx,0,8,FF,F8,0D,80,0F,FE,0E,00,
409623,00000245,false,Rx,0,8,FF,E0,00,18,00,00,FF,E1,
413655,00000176,false,Rx,0,7,00,00,02,47,00,00,04,00,
413671,000001F9,false,Rx,0,8,28,00,14,82,00,00,51,A8,
417757,00000280,false,Rx,0,8,03,3F,C0,00,00,00,DB,40,
417774,00000002,false,Rx,0,5,0D,00,00,07,39,00,00,00,
417778,000002DE,false,Rx,0,8,02,00,80,04,C0,00,05,D1,
421864,00000284,false,Rx,0,8,00,00,00,00,00,00,24,AA,
421880,00000174,false,Rx,0,8,FF,EF,FE,AA,05,00,00,00,
425961,00000216,false,Rx,0,2,42,6C,00,00,00,00,00,00,
425977,0000060D,false,Rx,0,8,06,06,00,00,00,00,00,00,
425982,00000002,false,Rx,0,5,0D,00,00,07,0A,00,00,00,
430053,00000215,false,Rx,0,6,FF,F4,FF,00,FF,FF,00,00,
430069,000002DE,false,Rx,0,8,02,00,80,04,C0,00,05,D1,
430073,000006E2,false,Rx,0,3,00,00,7B,00,00,00,00,00,
434094,00000280,false,Rx,0,8,03,3E,C0,00,00,00,DA,40,
434111,00000002,false,Rx,0,5,0D,00,00,07,28,00,00,00,
438259,00000002,false,Rx,0,5,0D,00,00,07,1B,00,00,00,
438275,00000284,false,Rx,0,8,00,00,00,00,00,00,25,AB,
438280,00000174,false,Rx,0,8,FF,EF,FE,AA,07,00,00,00,
442331,00000177,false,Rx,0,8,FE,10,00,00,00,F8,00,00,
442347,00000180,false,Rx,0,8,14,69,32,23,3C,00,38,11,
446445,00000216,false,Rx,0,2,42,6C,00,00,00,00,00,00,
446462,00000215,false,Rx,0,6,FF,F4,FF,00,FF,FF,00,00,
446467,00000292,false,Rx,0,8,FF,F8,10,80,0F,FE,0E,00,
450547,00000245,false,Rx,0,8,FF,E0,00,18,00,00,FF,E3,
450564,00000177,false,Rx,0,8,FE,10,00,00,00,F8,00,00,
454632,00000160,false,Rx,0,7,33,D3,22,00,08,FF,E8,00,
454652,00000280,false,Rx,0,8,03,3F,C0,00,00,00,D5,40,
458734,00000002,false,Rx,0,5,0D,00,00,07,7D,00,00,00,
458751,000002DE,false,Rx,0,8,02,00,80,04,C0,00,05,D1,
462715,00000285,false,Rx,0,8,00,00,00,00,00,00,26,AD,
462729,00000284,false,Rx,0,8,00,00,00,00,00,00,26,AC,
462734,00000216,false,Rx,0,2,42,6C,00,00,00,00,00,00,
466873,00000358,false,Rx,0,8,00,88,00,00,00,00,00,00,
466894,00000002,false,Rx,0,5,0D,00,00,07,4E,00,00,00,
466898,00000215,false,Rx,0,6,FF,F4,FF,00,FF,FF,00,00,
470961,000002DE,false,Rx,0,8,02,00,80,04,C0,00,05,D1,
470979,00000180,false,Rx,0,8,14,82,32,23,3D,00,3B,11,
475089,00000280,false,Rx,0,8,03,3F,C0,00,00,00,DB,40,
475105,000002DE,false,Rx,0,8,02,00,80,04,C0,00,05,D1,
479207,00000002,false,Rx,0,5,0D,00,00,07,5F,00,00,00,
479223,00000174,false,Rx,0,8,FF,EF,FE,AA,0B,00,00,00,
483272,00000177,false,Rx,0,8,FE,10,00,00,00,F8,00,00,
483288,00000216,false,Rx,0,2,42,6C,00,00,00,00,00,00,
483293,00000182,false,Rx,0,8,00,00,00,00,00,1C,40,CF,
487405,000001F9,false,Rx,0,8,28,00,14,82,00,00,51,A8,
487422,00000215,false,Rx,0,6,FF,F4,FF,00,FF,FF,00,00,
491482,00000245,false,Rx,0,8,FF,E0,00,18,00,00,FF,E1,
491498,00000174,false,Rx,0,8,FF,EF,FE,AA,0C,00,00,00,
491503,00000177,false,Rx,0,8,FE,10,00,00,00,F8,00,00,
495609,00000160,false,Rx,0,7,33,C3,23,00,08,FF,E8,00,
495625,00000002,false,Rx,0,5,0D,00,00,07,B1,00,00,00,
499682,000002DE,false,Rx,0,8,02,00,80,04,C0,00,05,D1,
499699,00000284,false,Rx,0,8,00,00,00,00,00,00,28,AE,
503790,00000174,false,Rx,0,8,FF,EF,FE,AA,0D,00,00,00,
503806,00000177,false,Rx,0,8,FE,10,00,00,00,F8,00,00,
503810,00000515,false,Rx,0,4,02,00,00,00,00,00,00,00,
507890,00000002,false,Rx,0,5,0D,00,00,07,82,00,00,00,
507906,00000215,false,Rx,0,6,FF,F4,FF,00,FF,FF,00,00,
511971,00000292,false,Rx,0,8,FF,F8,0B,80,0F,FE,0E,00,
511988,000002DE,false,Rx,0,8,02,00,80,04,C0,00,05,D1,
511992,00000280,false,Rx,0,8,03,3D,C0,00,00,00,D8,40,
516061,00000580,false,Rx,0,5,00,82,40,B0,6C,00,00,00,
516078,00000002,false,Rx,0,5,0D,00,00,07,93,00,00,00,
520121,00000625,false,Rx,0,6,02,E0,FF,1D,20,00,00,00,
520139,000002DE,false,Rx,0,8,02,00,80,04,C0,00,05,D1,
520143,00000216,false,Rx,0,2,42,6C,00,00,00,00,00,00,
524390,00000160,false,Rx,0,7,33,D3,22,00,08,FF,E8,00,
524419,00000182,false,Rx,0,8,00,00,00,00,00,10,40,CF,
528357,000001F9,false,Rx,0,8,28,00,14,69,00,00,51,A8,
528376,0000060D,false,Rx,0,8,06,06,00,00,00,00,00,00,
528380,00000176,false,Rx,0,7,00,00,02,49,00,00,00,00,
532467,00000421,false,Rx,0,3,08,00,00,00,00,00,00,00,
532483,00000285,false,Rx,0,8,00,00,00,00,00,00,29,B0,
536491,00000280,false,Rx,0,8,03,3E,C0,00,00,00,DC,40,
536511,00000160,false,Rx,0,7,33,D3,22,00,08,FF,E8,00,
540592,00000284,false,Rx,0,8,00,00,00,00,00,00,2A,B0,
540611,00000174,false,Rx,0,8,FF,EF,FE,AA,01,00,00,00,
540616,00000177,false,Rx,0,8,FE,10,00,00,00,F8,00,00,
544728,00000216,false,Rx,0,2,42,6C,00,00,00,00,00,00,
544744,00000160,false,Rx,0,7,33,D3,23,00,08,FF,E8,00,
544749,00000002,false,Rx,0,5,0D,00,00,07,C6,00,00,00,
548852,000002DE,false,Rx,0,8,02,00,80,04,C0,00,05,D1,
548868,00000245,false,Rx,0,8,FF,E0,00,18,00,00,FF,E0,
552942,00000174,false,Rx,0,8,FF,EF,FE,AA,02,00,00,00,
552958,00000177,false,Rx,0,8,FE,10,00,00,00,F8,00,00,
557063,000001F9,false,Rx,0,8,28,00,14,69,00,00,51,A8,
557080,00000002,false,Rx,0,5,0D,00,00,07,D7,00,00,00,
561109,00000285,false,Rx,0,8,00,00,00,00,00,00,2B,B2,
561126,00000284,false,Rx,0,8,00,00,00,00,00,00,2B,B1,
561130,00000355,false,Rx,0,7,00,00,00,00,00,00,40,00,
565235,000001F9,false,Rx,0,8,28,00,14,69,00,00,51,A8,
565251,00000358,false,Rx,0,8,00,88,00,00,00,00,00,00,
569306,00000002,false,Rx,0,5,0D,00,00,07,28,00,00,00,
569322,00000215,false,Rx,0,6,FF,F4,FF,00,FF,FF,00,00,
573433,00000354,false,Rx,0,8,00,00,00,00,00,00,14,00,
573449,00000280,false,Rx,0,8,03,3F,C0,00,00,00,D8,40,
573454,00000160,false,Rx,0,7,33,D3,22,00,08,FF,E8,00,
577506,00000551,false,Rx,0,8,78,7B,00,80,FF,02,80,FF,
577522,00000002,false,Rx,0,5,0D,00,00,07,39,00,00,00,
581609,00000625,false,Rx,0,6,02,E0,FF,1D,20,00,00,00,
581626,00000216,false,Rx,0,2,42,6C,00,00,00,00,00,00,
581631,00000180,false,Rx,0,8,14,69,32,23,3D,00,31,11,
585708,00000160,false,Rx,0,7,33,D3,22,00,08,FF,E8,00,
585724,00000180,false,Rx,0,8,14,69,32,23,3D,00,36,11,
589809,00000351,false,Rx,0,8,00,00,00,00,00,00,00,06,
589826,00000176,false,Rx,0,7,00,00,02,47,00,00,06,00,
589830,00000421,false,Rx,0,3,08,00,00,00,00,00,00,00,
593881,00000182,false,Rx,0,8,00,00,00,00,00,16,40,CF,
593897,00000280,false,Rx,0,8,03,3F,C0,00,00,00,DB,40,
598009,00000160,false,Rx,0,7,33,D3,22,00,08,FF,E8,00,
598049,00000285,false,Rx,0,8,00,00,00,00,00,00,2D,B4,
602091,00000284,false,Rx,0,8,00,00,00,00,00,00,2D,B3,
602107,00000177,false,Rx,0,8,FE,10,00,00,00,F8,00,00,
606200,0000054C,false,Rx,0,8,78,78,C0,00,00,80,04,08,
606215,00000216,false,Rx,0,2,42,6C,00,00,00,00,00,00,
606220,00000215,false,Rx,0,6,FF,F4,FF,00,FF,FF,00,00,
610283,000002DE,false,Rx,0,8,02,00,80,04,C0,00,05,D1,
610300,00000245,false,Rx,0,8,FF,E0,00,18,00,00,FF,E3,
610305,00000177,false,Rx,0,8,FE,10,00,00,00,F8,00,00,
614365,00000280,false,Rx,0,8,03,3E,C0,00,00,00,D7,40,
614382,000001F9,false,Rx,0,8,28,00,14,82,00,00,51,A8,
618445,00000002,false,Rx,0,5,0D,00,00,07,7D,00,00,00,
618462,000002DE,false,Rx,0,8,02,00,80,04,C0,00,05,D1,
622606,00000284,false,Rx,0,8,00,00,00,00,00,00,2E,B4,
622626,00000174,false,Rx,0,8,FF,EF,FE,AA,09,00,00,00,
626615,0000060D,false,Rx,0,8,06,06,00,00,00,00,00,00,
626634,00000182,false,Rx,0,8,00,00,00,00,00,1A,40,CF,
626639,00000002,false,Rx,0,5,0D,00,00,07,4E,00,00,00,
630750,00000215,false,Rx,0,6,FF,F4,FF,00,FF,FF,00,00,
630766,00000245,false,Rx,0,8,FF,E0,00,18,00,00,FF,E0,
634856,00000280,false,Rx,0,8,03,3E,C0,00,00,00,D4,40,
634872,000005C5,false,Rx,0,8,44,01,CF,E2,00,0C,00,7F,
638964,00000160,false,Rx,0,7,33,D3,22,00,08,FF,E8,00,
638980,000006E2,false,Rx,0,3,00,00,79,00,00,00,00,00,
638986,000002DE,false,Rx,0,8,02,00,80,04,C0,00,05,D1,
643053,00000216,false,Rx,0,2,42,6C,00,00,00,00,00,00,
643069,00000180,false,Rx,0,8,14,50,32,23,3D,00,3B,11,
647130,0000035D,false,Rx,0,8,80,03,00,00,10,00,00,00,
647146,000001F9,false,Rx,0,8,28,00,14,50,00,00,51,A8,
647151,00000215,false,Rx,0,6,FF,F4,FF,00,FF,FF,00,00,
651236,00000245,false,Rx,0,8,FF,E0,00,18,00,00,FF,E1,
651252,00000174,false,Rx,0,8,FF,EF,FE,AA,0C,00,00,00,
655331,00000421,false,Rx,0,3,08,00,00,00,00,00,00,00,
655348,00000280,false,Rx,0,8,03,3E,C0,00,00,00,DB,40,
655353,00000002,false,Rx,0,5,0D,00,00,07,B1,00,00,00,
659433,000001F9,false,Rx,0,8,28,00,14,82,00,00,51,A8,
659450,000002DE,false,Rx,0,8,02,00,80,04,C0,00,05,D1,
663532,00000284,false,Rx,0,8,00,00,00,00,00,00,30,B6,
663548,00000216,false,Rx,0,2,42,6C,00,00,00,00,00,00,
663553,00000358,false,Rx,0,8,00,88,00,00,00,00,00,00,
667607,00000160,false,Rx,0,7,33,D3,23,00,08,FF,E8,00,
667623,00000160,false,Rx,0,7,33,C3,23,00,08,FF,E8,00,
671738,00000215,false,Rx,0,6,FF,F4,FF,00,FF,FF,00,00,
671754,00000560,false,Rx,0,3,46,72,00,00,00,00,00,00,
671758,00000280,false,Rx,0,8,03,40,C0,00,00,00,D8,40,
675815,00000002,false,Rx,0,5,0D,00,00,07,82,00,00,00,
675831,00000002,false,Rx,0,5,0D,00,00,07,93,00,00,00,
679914,000002DE,false,Rx,0,8,02,00,80,04,C0,00,05,D1,
679930,00000284,false,Rx,0,8,00,00,00,00,00,00,31,B7,
679935,00000174,false,Rx,0,8,FF,EF,FE,AA,0F,00,00,00,
684011,00000177,false,Rx,0,8,FE,10,00,00,00,F8,00,00,
684052,00000216,false,Rx,0,2,42,6C,00,00,00,00,00,00,
688116,00000180,false,Rx,0,8,14,82,32,33,3C,00,30,11,
688131,000001F9,false,Rx,0,8,28,00,14,82,00,00,51,A8,
688136,00000245,false,Rx,0,8,FF,E0,00,18,00,00,FF,E3,
692170,00000176,false,Rx,0,7,00,00,02,43,00,00,00,00,
692188,00000177,false,Rx,0,8,FE,10,00,00,00,F8,00,00,
696271,000005C5,false,Rx,0,8,44,01,CF,E2,00,0C,00,7F,
696288,00000002,false,Rx,0,5,0D,00,00,07,F5,00,00,00,
700356,00000180,false,Rx,0,8,14,82,32,33,3C,00,31,11,
700379,000002DE,false,Rx,0,8,02,00,80,04,C0,00,05,D1,
704505,00000284,false,Rx,0,8,00,00,00,00,00,00,32,B8,
704525,00000216,false,Rx,0,2,42,6C,00,00,00,00,00,00,
704529,00000515,false,Rx,0,4,02,00,00,00,00,00,00,00,
704533,00000625,false,Rx,0,6,02,E0,FF,1D,20,00,00,00,
708604,00000002,false,Rx,0,5,0D,00,00,07,C6,00,00,00,
708620,00000160,false,Rx,0,7,33,C3,23,00,08,FF,E8,00,
708624,00000421,false,Rx,0,3,08,00,00,00,00,00,00,00,
712672,00000215,false,Rx,0,6,FF,F4,FF,00,FF,FF,00,00,
712692,00000280,false,Rx,0,8,03,3F,C0,00,00,00,DC,40,
716782,00000002,false,Rx,0,5,0D,00,00,07,D7,00,00,00,
716798,00000160,false,Rx,0,7,33,C3,23,00,08,FF,E8,00,
720852,000001F9,false,Rx,0,8,28,00,14,82,00,00,51,A8,
720867,00000355,false,Rx,0,7,00,00,00,00,00,00,40,00,
720870,00000177,false,Rx,0,8,FE,10,00,00,00,F8,00,00,
725177,00000216,false,Rx,0,2,42,6C,00,00,00,00,00,00,
725191,0000060D,false,Rx,0,8,06,06,00,00,00,00,00,00,
725195,00000002,false,Rx,0,5,0D,00,00,07,28,00,00,00,
729039,00000215,false,Rx,0,6,FF,F4,FF,00,FF,FF,00,00,
729054,00000182,false,Rx,0,8,00,00,00,00,00,14,40,CF,
733144,00000354,false,Rx,0,8,00,00,00,00,00,00,14,00,
733157,00000280,false,Rx,0,8,03,3F,C0,00,00,00,D7,40,
737232,00000180,false,Rx,0,8,14,82,32,33,3C,00,33,11,
737246,00000002,false,Rx,0,5,0D,00,00,07,39,00,00,00,
741396,000002DE,false,Rx,0,8,02,00,80,04,C0,00,05,D1,
741418,00000177,false,Rx,0,8,FE,10,00,00,00,F8,00,00,
741421,00000216,false,Rx,0,2,42,6C,00,00,00,00,00,00,
745431,00000160,false,Rx,0,7,33,C3,23,00,08,FF,E8,00,
745446,0000035D,false,Rx,0,8,80,03,00,00,10,00,00,00,
745449,00000215,false,Rx,0,6,FF,F4,FF,00,FF,FF,00,00,
749580,00000160,false,Rx,0,7,33,C3,23,00,08,FF,E8,00,
749594,00000245,false,Rx,0,8,FF,E0,00,18,00,00,FF,E2,
753590,00000177,false,Rx,0,8,FE,10,00,00,00,F8,00,00,
753604,00000280,false,Rx,0,8,03,41,C0,00,00,00,D6,40,
757718,00000002,false,Rx,0,5,0D,00,00,07,1B,00,00,00,
757739,00000002,false,Rx,0,5,0D,00,00,07,0A,00,00,00,
757742,000002DE,false,Rx,0,8,02,00,80,04,C0,00,05,D1,
761809,00000160,false,Rx,0,7,33,C3,23,00,08,FF,E8,00,
761823,00000174,false,Rx,0,8,FF,EF,FE,AA,07,00,00,00,
765904,00000358,false,Rx,0,8,00,88,00,00,00,00,00,00,
765918,00000002,false,Rx,0,5,0D,00,00,07,6C,00,00,00,
765922,00000215,false,Rx,0,6,FF,F4,FF,00,FF,FF,00,00,
770005,000002DE,false,Rx,0,8,02,00,80,04,C0,00,05,D1,
770039,00000354,false,Rx,0,8,00,00,00,00,00,08,14,00,
774156,00000280,false,Rx,0,8,03,40,C0,00,00,00,DC,40,
774170,00000285,false,Rx,0,8,00,00,00,00,00,00,35,BC,
778222,00000002,false,Rx,0,5,0D,00,00,07,7D,00,00,00,
778242,00000160,false,Rx,0,7,33,C3,23,00,08,FF,E8,00,
782305,000001F9,false,Rx,0,8,28,00,14,9B,00,00,51,A8,
782320,00000177,false,Rx,0,8,FE,10,00,00,00,F8,00,00,
782323,00000216,false,Rx,0,2,42,6C,00,00,00,00,00,00,
786402,00000351,false,Rx,0,8,00,00,00,00,00,00,00,06,
786425,00000002,false,Rx,0,5,0D,00,00,07,4E,00,00,00,
786428,00000215,false,Rx,0,6,FF,F4,FF,00,FF,FF,00,00,
790980,00000245,false,Rx,0,8,FF,E0,00,18,00,00,FF,E0,
790996,00000160,false,Rx,0,7,33,C3,23,00,08,FF,E8,00,
794613,000001F9,false,Rx,0,8,28,00,14,9B,00,00,51,A8,
794633,000005C5,false,Rx,0,8,44,01,CF,E2,00,0C,00,7F,
798702,00000002,false,Rx,0,5,0D,00,00,07,5F,00,00,00,
798723,000002DE,false,Rx,0,8,02,00,80,04,C0,00,05,D1,
798726,00000355,false,Rx,0,7,00,00,00,00,00,00,40,00,
802781,00000284,false,Rx,0,8,00,00,00,00,00,00,37,BD,
802794,00000216,false,Rx,0,2,42,6C,00,00,00,00,00,00,
802798,00000515,false,Rx,0,4,02,00,00,00,00,00,00,00,
806868,00000625,false,Rx,0,6,02,E0,FF,1D,20,00,00,00,
806888,00000002,false,Rx,0,5,0D,00,00,07,A0,00,00,00,
810947,00000292,false,Rx,0,8,FF,F8,10,80,0F,FE,0E,00,
810961,000001F9,false,Rx,0,8,28,00,14,9B,00,00,51,A8,
815046,00000280,false,Rx,0,8,03,3F,C0,00,00,00,D9,40,
815060,00000215,false,Rx,0,6,FF,F4,FF,00,FF,FF,00,00,
815063,00000002,false,Rx,0,5,0D,00,00,07,B1,00,00,00,
819161,00000284,false,Rx,0,8,00,00,00,00,00,00,38,BE,
819175,00000174,false,Rx,0,8,FF,EF,FE,AA,0D,00,00,00,
823227,00000176,false,Rx,0,7,00,00,02,49,00,00,0D,00,
823241,000001F9,false,Rx,0,8,28,00,14,9B,00,00,51,A8,
823245,00000216,false,Rx,0,2,42,6C,00,00,00,00,00,00,
827352,00000215,false,Rx,0,6,FF,F4,FF,00,FF,FF,00,00,
827365,000002DE,false,Rx,0,8,02,00,80,04,C0,00,05,D1,
831425,00000245,false,Rx,0,8,FF,E0,00,18,00,00,FF,E2,
831438,00000174,false,Rx,0,8,FF,EF,FE,AA,0E,00,00,00,
835570,00000182,false,Rx,0,8,00,00,00,00,00,1E,40,CF,
835584,00000280,false,Rx,0,8,03,3E,C0,00,00,00,DE,40,
835588,00000002,false,Rx,0,5,0D,00,00,07,93,00,00,00,
839619,000002DE,false,Rx,0,8,02,00,80,04,C0,00,05,D1,
839632,00000355,false,Rx,0,7,00,00,00,00,00,00,40,00,
843720,00000284,false,Rx,0,8,00,00,00,00,00,00,39,BF,
843733,00000216,false,Rx,0,2,42,6C,00,00,00,00,00,00,
843737,0000035D,false,Rx,0,8,80,03,00,00,10,00,00,00,
847830,00000002,false,Rx,0,5,0D,00,00,07,E4,00,00,00,
847844,00000215,false,Rx,0,6,FF,F4,FF,00,FF,FF,00,00,
851920,000002DE,false,Rx,0,8,02,00,80,04,C0,00,05,D1,
851933,000001F9,false,Rx,0,8,28,00,14,CD,00,00,51,A8,
851937,00000280,false,Rx,0,8,03,3D,C0,00,00,00,D8,40,
856006,000002DE,false,Rx,0,8,02,00,80,04,C0,00,05,D1,
856039,00000002,false,Rx,0,5,0D,00,00,07,F5,00,00,00,
860135,000002DE,false,Rx,0,8,02,00,80,04,C0,00,05,D1,
860149,00000176,false,Rx,0,7,00,00,02,4B,00,00,01,00,
864202,00000160,false,Rx,0,7,33,C3,21,00,08,FF,E8,00,
864217,00000216,false,Rx,0,2,42,6C,00,00,00,00,00,00,
864220,00000358,false,Rx,0,8,00,88,00,00,00,00,00,00,
868423,00000002,false,Rx,0,5,0D,00,00,07,C6,00,00,00,
868441,000002DE,false,Rx,0,8,02,00,80,04,C0,00,05,D1,
872435,00000245,false,Rx,0,8,FF,E0,00,18,00,00,FF,E0,
872453,00000174,false,Rx,0,8,FF,EF,FE,AA,02,00,00,00,
872456,00000560,false,Rx,0,3,46,10,47,00,00,00,00,00,
876527,00000280,false,Rx,0,8,03,3F,C0,00,00,00,DA,40,
876547,00000625,false,Rx,0,6,02,E0,FF,1D,20,00,00,00,
880597,000002DE,false,Rx,0,8,02,00,80,04,C0,00,05,D1,
880613,00000284,false,Rx,0,8,00,00,00,00,00,00,3B,C1,
884713,00000174,false,Rx,0,8,FF,EF,FE,AA,03,00,00,00,
884728,00000551,false,Rx,0,8,78,7C,00,80,FF,02,80,FF,
884731,00000351,false,Rx,0,8,00,00,00,00,00,00,00,06,
888807,00000002,false,Rx,0,5,0D,00,00,07,28,00,00,00,
888822,00000215,false,Rx,0,6,FF,F4,FF,00,FF,FF,00,00,
892902,00000292,false,Rx,0,8,FF,F8,10,80,0F,FE,0E,00,
892917,00000280,false,Rx,0,8,03,3E,C0,00,00,00,DB,40,
896971,000005C5,false,Rx,0,8,44,01,CF,E2,00,0C,00,7F,
896986,00000285,false,Rx,0,8,00,00,00,00,00,00,3A,C1,
896989,00000002,false,Rx,0,5,0D,00,00,07,39,00,00,00,
901104,000002DE,false,Rx,0,8,02,00,80,04,C0,00,05,D1,
901119,00000160,false,Rx,0,7,33,C3,22,00,08,FF,E8,00,
905212,000001F9,false,Rx,0,8,28,00,14,B4,00,00,51,A8,
905227,00000515,false,Rx,0,4,02,00,00,00,00,00,00,00,
905230,00000285,false,Rx,0,8,00,00,00,00,00,00,3C,C3,
909289,00000002,false,Rx,0,5,0D,00,00,07,0A,00,00,00,
909305,00000177,false,Rx,0,8,FE,10,00,00,00,F8,00,00,
913391,00000215,false,Rx,0,6,FF,F4,FF,00,FF,FF,00,00,
913441,00000160,false,Rx,0,7,33,C3,22,00,08,FF,E8,00,
917426,00000280,false,Rx,0,8,03,3C,C0,00,00,00,D7,40,
917436,00000002,false,Rx,0,5,0D,00,00,07,1B,00,00,00,
917440,00000355,false,Rx,0,7,00,00,00,00,00,00,40,00,
921583,00000174,false,Rx,0,8,FF,EF,FE,AA,07,00,00,00,
921602,00000177,false,Rx,0,8,FE,10,00,00,00,F8,00,00,
921605,00000216,false,Rx,0,2,42,6C,00,00,00,00,00,00,
925628,00000180,false,Rx,0,8,14,9B,32,23,3C,00,37,11,
925637,00000002,false,Rx,0,5,0D,00,00,07,6C,00,00,00,
929790,000002DE,false,Rx,0,8,02,00,80,04,C0,00,05,D1,
929805,00000245,false,Rx,0,8,FF,E0,00,18,00,00,FF,E3,
933855,00000174,false,Rx,0,8,FF,EF,FE,AA,08,00,00,00,
933870,00000177,false,Rx,0,8,FE,10,00,00,00,F8,00,00,
937911,00000280,false,Rx,0,8,03,3D,C0,00,00,00,D9,40,
937931,00000002,false,Rx,0,5,0D,00,00,07,7D,00,00,00,
937934,000002DE,false,Rx,0,8,02,00,80,04,C0,00,05,D1,
942064,00000284,false,Rx,0,8,00,00,00,00,00,00,3E,C4,
942101,00000174,false,Rx,0,8,FF,EF,FE,AA,09,00,00,00,
946106,0000035D,false,Rx,0,8,80,03,00,00,10,00,00,00,
946124,00000002,false,Rx,0,5,0D,00,00,07,4E,00,00,00,
946128,00000215,false,Rx,0,6,FF,F4,FF,00,FF,FF,00,00,
950169,000002DE,false,Rx,0,8,02,00,80,04,C0,00,05,D1,
950192,00000245,false,Rx,0,8,FF,E0,00,18,00,00,FF,E0,
954310,00000180,false,Rx,0,8,14,B4,32,23,3C,00,3A,11,
954327,000001F9,false,Rx,0,8,28,00,14,B4,00,00,51,A8,
958344,00000002,false,Rx,0,5,0D,00,00,07,5F,00,00,00,
958357,00000180,false,Rx,0,8,14,B4,32,23,3C,00,36,11,
962648,00000285,false,Rx,0,8,00,00,00,00,00,00,3F,C6,
962663,00000216,false,Rx,0,2,42,6C,00,00,00,00,00,00,
962667,00000160,false,Rx,0,7,33,C3,23,00,08,FF,E8,00,
966629,00000182,false,Rx,0,8,00,00,00,00,00,1B,40,CF,
966643,00000358,false,Rx,0,8,00,88,00,00,00,00,00,00,
970677,00000002,false,Rx,0,5,0D,00,00,07,A0,00,00,00,
970728,00000560,false,Rx,0,3,46,11,48,00,00,00,00,00,
970749,00000284,false,Rx,0,8,00,00,00,00,00,00,3F,C5,
974854,00000280,false,Rx,0,8,03,3E,C0,00,00,00,D8,40,
974870,000001F9,false,Rx,0,8,28,00,14,B4,00,00,51,A8,
974873,00000002,false,Rx,0,5,0D,00,00,07,B1,00,00,00,
978905,00000625,false,Rx,0,6,02,E0,FF,1D,20,00,00,00,
978920,000002DE,false,Rx,0,8,02,00,80,04,C0,00,05,D1,
983060,00000284,false,Rx,0,8,00,00,00,00,00,00,40,C6,
983077,00000216,false,Rx,0,2,42,6C,00,00,00,00,00,00,
983082,000001F9,false,Rx,0,8,28,00,14,9B,00,00,51,A8,
987047,00000351,false,Rx,0,8,00,00,00,00,00,00,00,06,
987063,00000002,false,Rx,0,5,0D,00,00,07,82,00,00,00,
991212,00000215,false,Rx,0,6,FF,F4,FF,00,FF,FF,00,00,
991226,00000177,false,Rx,0,8,FE,10,00,00,00,F8,00,00,
995308,00000280,false,Rx,0,8,03,3E,C0,00,00,00,DB,40,
995322,000005C5,false,Rx,0,8,44,01,CF,E2,00,0C,00,7F,
995326,000001F9,false,Rx,0,8,28,00,14,9B,00,00,51,A8,
999370,00000002,false,Rx,0,5,0D,00,00,07,93,00,00,00,
999384,00000177,false,Rx,0,8,FE,10,00,00,00,F8,00,00,
1003439,00000216,false,Rx,0,2,42,6C,00,00,00,00,00,00,
1003471,00000160,false,Rx,0,7,33,C3,21,00,08,FF,E8,00,
1003478,00000160,false,Rx,0,7,33,C3,23,00,08,FF,E8,00,
1007562,00000002,false,Rx,0,5,0D,00,00,07,E4,00,00,00,
1007577,00000215,false,Rx,0,6,FF,F4,FF,00,FF,FF,00,00,
1011718,00000354,false,Rx,0,8,00,00,00,00,00,18,14,00,
1011735,00000174,false,Rx,0,8,FF,EF,FE,AA,00,00,00,00,
1011739,00000421,false,Rx,0,3,08,00,00,00,00,00,00,00,
1015741,000001F9,false,Rx,0,8,28,00,14,CD,00,00,51,A8,
1015760,00000002,false,Rx,0,5,0D,00,00,07,F5,00,00,00,
1019900,00000180,false,Rx,0,8,14,9B,32,33,3C,00,3F,11,
1019919,000002DE,false,Rx,0,8,02,00,80,04,C0,00,05,D1,
1019924,00000284,false,Rx,0,8,00,00,00,00,00,00,42,C8,
1023906,00000216,false,Rx,0,2,42,6C,00,00,00,00,00,00,
1023921,0000060D,false,Rx,0,8,06,06,00,00,00,00,00,00,
1028122,00000160,false,Rx,0,7,33,C3,22,00,08,FF,E8,00,
1028136,00000580,false,Rx,0,5,00,82,40,B2,6C,00,00,00,
1028141,00000002,false,Rx,0,5,0D,00,00,07,C6,00,00,00,
1032184,00000177,false,Rx,0,8,FE,10,00,00,00,F8,00,00,
1032199,00000285,false,Rx,0,8,00,00,00,00,00,00,42,C9,
1036311,00000280,false,Rx,0,8,03,3F,C0,00,00,00,D9,40,
1036334,00000160,false,Rx,0,7,33,C3,21,00,08,FF,E8,00,
1040763,00000285,false,Rx,0,8,00,00,00,00,00,00,43,CA,
1040780,00000284,false,Rx,0,8,00,00,00,00,00,00,43,C9,
1040785,00000177,false,Rx,0,8,FE,10,00,00,00,F8,00,00,
1044378,00000216,false,Rx,0,2,42,6C,00,00,00,00,00,00,
1044393,0000035D,false,Rx,0,8,80,03,00,00,10,00,00,00,
1044398,000006E2,false,Rx,0,3,00,00,79,00,00,00,00,00,
1048607,00000215,false,Rx,0,6,FF,F4,FF,00,FF,FF,00,00,
1048624,00000292,false,Rx,0,8,FF,F8,0D,80,0F,FE,0F,00,
1052652,00000245,false,Rx,0,8,FF,E0,00,18,00,00,FF,E1,
1052668,00000177,false,Rx,0,8,FE,10,00,00,00,F8,00,00,
1056721,00000280,false,Rx,0,8,03,3F,C0,00,00,00,DC,40,
1056737,00000182,false,Rx,0,8,00,00,00,00,00,14,40,CF,
1056740,00000002,false,Rx,0,5,0D,00,00,07,39,00,00,00,
1060823,00000285,false,Rx,0,8,00,00,00,00,00,00,44,CB,
1060838,000002DE,false,Rx,0,8,02,00,80,04,C0,00,05,D1,
1064878,00000216,false,Rx,0,2,42,6C,00,00,00,00,00,00,
1064895,00000358,false,Rx,0,8,00,88,00,00,00,00,00,00,
1064899,00000160,false,Rx,0,7,33,C3,22,00,08,FF,E8,00,
1068985,00000002,false,Rx,0,5,0D,00,00,07,0A,00,00,00,
1069001,00000215,false,Rx,0,6,FF,F4,FF,00,FF,FF,00,00,
1069004,00000560,false,Rx,0,3,46,12,30,00,00,00,00,00,
1073057,00000280,false,Rx,0,8,03,3E,C0,00,00,00,DC,40,
1073072,00000180,false,Rx,0,8,14,CD,32,13,3C,00,32,11,
1077260,00000160,false,Rx,0,7,33,C3,22,00,08,FF,E8,00,
1077309,00000285,false,Rx,0,8,00,00,00,00,00,00,45,CC,
1081334,00000355,false,Rx,0,7,00,00,00,00,00,00,40,00,
1081349,00000177,false,Rx,0,8,FE,10,00,00,00,F8,00,00,
1081352,00000216,false,Rx,0,2,42,6C,00,00,00,00,00,00,
1085408,00000351,false,Rx,0,8,00,00,00,00,00,00,00,06,
1085457,00000160,false,Rx,0,7,33,C3,22,00,08,FF,E8,00,
1089492,000001F9,false,Rx,0,8,28,00,14,B4,00,00,51,A8,
1089506,00000292,false,Rx,0,8,FF,F8,0D,80,0F,FE,0F,00,
1093578,00000245,false,Rx,0,8,FF,E0,00,18,00,00,FF,E3,
1093593,00000177,false,Rx,0,8,FE,10,00,00,00,F8,00,00,
1097731,000005C5,false,Rx,0,8,44,01,CF,E2,00,0C,00,7F,
1097747,00000160,false,Rx,0,7,33,C3,22,00,08,FF,E8,00,
1097751,000001F9,false,Rx,0,8,28,00,14,B4,00,00,51,A8,
1101811,00000284,false,Rx,0,8,00,00,00,00,00,00,46,CC,
1101827,00000176,false,Rx,0,7,00,00,02,4B,00,00,09,00,
1105955,00000515,false,Rx,0,4,02,00,00,00,00,00,00,00,
1106005,00000180,false,Rx,0,8,14,B4,32,23,3C,00,36,11,
1106067,00000002,false,Rx,0,5,0D,00,00,07,4E,00,00,00,
1110008,00000215,false,Rx,0,6,FF,F4,FF,00,FF,FF,00,00,
1110041,00000245,false,Rx,0,8,FF,E0,00,18,00,00,FF,E0,
1114105,00000280,false,Rx,0,8,03,3D,C0,00,00,00,DB,40,
1114153,00000160,false,Rx,0,7,33,C3,22,00,08,FF,E8,00,
1118176,00000002,false,Rx,0,5,0D,00,00,07,5F,00,00,00,
1118195,00000285,false,Rx,0,8,00,00,00,00,00,00,47,CE,
1118198,00000355,false,Rx,0,7,00,00,00,00,00,00,40,00,
1122247,00000177,false,Rx,0,8,FE,10,00,00,00,F8,00,00,
1122263,00000216,false,Rx,0,2,42,6C,00,00,00,00,00,00,
1126403,0000060D,false,Rx,0,8,06,06,00,00,00,00,00,00,
1126421,00000002,false,Rx,0,5,0D,00,00,07,A0,00,00,00,
1126425,00000215,false,Rx,0,6,FF,F4,FF,00,FF,FF,00,00,
1130482,00000180,false,Rx,0,8,14,B4,32,23,3C,00,3B,11,
1130498,000002DE,false,Rx,0,8,02,00,80,04,C0,00,05,D1,
1134625,00000176,false,Rx,0,7,00,00,02,50,00,00,0C,00,
1134674,00000280,false,Rx,0,8,03,3F,C0,00,00,00,DC,40,
1134693,00000002,false,Rx,0,5,0D,00,00,07,B1,00,00,00,
1138669,00000160,false,Rx,0,7,33,C3,22,00,08,FF,E8,00,
1138684,00000160,false,Rx,0,7,33,C3,22,00,08,FF,E8,00,
1142797,00000285,false,Rx,0,8,00,00,00,00,00,00,48,CF,
1142828,00000216,false,Rx,0,2,42,6C,00,00,00,00,00,00,
1142832,00000180,false,Rx,0,8,14,B4,32,23,3C,00,3C,11,
1146840,0000035D,false,Rx,0,8,80,03,00,00,10,00,00,00,
1146856,00000002,false,Rx,0,5,0D,00,00,07,82,00,00,00,
1150920,00000215,false,Rx,0,6,FF,F4,FF,00,FF,FF,00,00,
1150935,00000177,false,Rx,0,8,FE,10,00,00,00,F8,00,00,
1155044,00000280,false,Rx,0,8,03,3E,C0,00,00,00,D8,40,
1155058,00000160,false,Rx,0,7,33,C3,22,00,08,FF,E8,00,
1155063,00000002,false,Rx,0,5,0D,00,00,07,93,00,00,00,
1159134,00000180,false,Rx,0,8,14,B4,32,23,3C,00,3E,11,
1159148,00000285,false,Rx,0,8,00,00,00,00,00,00,49,D0,
1163217,00000176,false,Rx,0,7,00,00,02,4D,00,00,0F,00,
1163231,00000177,false,Rx,0,8,FE,10,00,00,00,F8,00,00,
1163235,00000216,false,Rx,0,2,42,6C,00,00,00,00,00,00,
1167323,00000215,false,Rx,0,6,FF,F4,FF,00,FF,FF,00,00,
1167337,000002DE,false,Rx,0,8,02,00,80,04,C0,00,05,D1,
1171435,00000180,false,Rx,0,8,14,9B,32,23,3C,00,3F,11,
1171450,00000245,false,Rx,0,8,FF,E0,00,18,00,00,FF,E3,
1171454,00000560,false,Rx,0,3,46,13,31,00,00,00,00,00,
1175565,00000280,false,Rx,0,8,03,3E,C0,00,00,00,D9,40,
1175579,00000002,false,Rx,0,5,0D,00,00,07,F5,00,00,00,
1179569,00000625,false,Rx,0,6,02,E0,FF,1D,20,00,00,00,
1179583,000002DE,false,Rx,0,8,02,00,80,04,C0,00,05,D1,
1179588,00000160,false,Rx,0,7,33,C3,22,00,08,FF,E8,00,
1183697,00000216,false,Rx,0,2,42,6C,00,00,00,00,00,00,
1183711,00000160,false,Rx,0,7,33,C3,22,00,08,FF,E8,00,
1183716,00000351,false,Rx,0,8,00,00,00,00,00,00,00,06,
1187787,00000002,false,Rx,0,5,0D,00,00,07,C6,00,00,00,
1187810,00000215,false,Rx,0,6,FF,F4,FF,00,FF,FF,00,00,
1187815,00000421,false,Rx,0,3,08,00,00,00,00,00,00,00,
1191868,000002DE,false,Rx,0,8,02,00,80,04,C0,00,05,D1,
1191891,00000280,false,Rx,0,8,03,40,C0,00,00,00,D9,40,
1195958,000005C5,false,Rx,0,8,44,01,CF,E2,00,0C,00,7F,
1195972,00000002,false,Rx,0,5,0D,00,00,07,D7,00,00,00,
1200087,00000160,false,Rx,0,7,33,C3,22,00,08,FF,E8,00,
1200129,000001F9,false,Rx,0,8,28,00,14,B4,00,00,51,A8,
1204145,00000177,false,Rx,0,8,FE,10,00,00,00,F8,00,00,
1204163,00000216,false,Rx,0,2,42,6C,00,00,00,00,00,00,
1204168,00000515,false,Rx,0,4,02,00,00,00,00,00,00,00,
1204173,00000002,false,Rx,0,5,0D,00,00,07,28,00,00,00,
1208263,00000215,false,Rx,0,6,FF,F4,FF,00,FF,FF,00,00,
1208277,00000292,false,Rx,0,8,FF,F8,0D,80,0F,FE,0E,00,
1212404,00000245,false,Rx,0,8,FF,E0,00,18,00,00,FF,E1,
1212417,00000176,false,Rx,0,7,00,00,02,49,00,00,04,00,
1216490,00000280,false,Rx,0,8,03,3F,C0,00,00,00,D6,40,
1216504,00000002,false,Rx,0,5,0D,00,00,07,39,00,00,00,
1216507,000002DE,false,Rx,0,8,02,00,80,04,C0,00,05,D1,
1220572,000002DE,false,Rx,0,8,02,00,80,04,C0,00,05,D1,
1220587,00000284,false,Rx,0,8,00,00,00,00,00,00,4C,D2,
1224676,00000216,false,Rx,0,2,42,6C,00,00,00,00,00,00,
1224689,0000060D,false,Rx,0,8,06,06,00,00,00,00,00,00,
1224693,00000285,false,Rx,0,8,00,00,00,00,00,00,4C,D3,
1228769,00000002,false,Rx,0,5,0D,00,00,07,0A,00,00,00,
1228783,00000215,false,Rx,0,6,FF,F4,FF,00,FF,FF,00,00,
1232858,00000580,false,Rx,0,5,00,82,40,B6,6C,00,00,00,
1232872,00000280,false,Rx,0,8,03,3F,C0,00,00,00,DC,40,
1232876,000002DE,false,Rx,0,8,02,00,80,04,C0,00,05,D1,
1236954,00000002,false,Rx,0,5,0D,00,00,07,1B,00,00,00,
1236969,00000285,false,Rx,0,8,00,00,00,00,00,00,4D,D4,
1241058,00000284,false,Rx,0,8,00,00,00,00,00,00,4D,D3,
1241074,00000176,false,Rx,0,7,00,00,02,4D,00,00,07,00,
1245169,000001F9,false,Rx,0,8,28,00,14,9B,00,00,51,A8,
1245182,00000216,false,Rx,0,2,42,6C,00,00,00,00,00,00,
1245186,00000215,false,Rx,0,6,FF,F4,FF,00,FF,FF,00,00,
1249247,000002DE,false,Rx,0,8,02,00,80,04,C0,00,05,D1,
1249261,00000245,false,Rx,0,8,FF,E0,00,18,00,00,FF,E3,
1253336,00000174,false,Rx,0,8,FF,EF,FE,AA,08,00,00,00,
1253356,00000182,false,Rx,0,8,00,00,00,00,00,17,40,CF,
1257416,00000280,false,Rx,0,8,03,3E,C0,00,00,00,DD,40,
1257434,00000002,false,Rx,0,5,0D,00,00,07,7D,00,00,00,
1257438,000002DE,false,Rx,0,8,02,00,80,04,C0,00,05,D1,
1261608,00000285,false,Rx,0,8,00,00,00,00,00,00,4E,D5,
1261623,000002DE,false,Rx,0,8,02,00,80,04,C0,00,05,D1,
1261627,00000216,false,Rx,0,2,42,6C,00,00,00,00,00,00,
1265659,00000358,false,Rx,0,8,00,88,00,00,00,00,00,00,
1265674,00000002,false,Rx,0,5,0D,00,00,07,4E,00,00,00,
1269769,00000215,false,Rx,0,6,FF,F4,FF,00,FF,FF,00,00,
1269790,000002DE,false,Rx,0,8,02,00,80,04,C0,00,05,D1,
1273846,000001F9,false,Rx,0,8,28,00,14,9B,00,00,51,A8,
1273864,00000280,false,Rx,0,8,03,40,C0,00,00,00,D6,40,
1277962,00000284,false,Rx,0,8,00,00,00,00,00,00,4E,D4,
1277978,00000002,false,Rx,0,5,0D,00,00,07,5F,00,00,00,
1277981,00000355,false,Rx,0,7,00,00,00,00,00,00,40,00,
1282101,00000177,false,Rx,0,8,FE,10,00,00,00,F8,00,00,
1282116,00000180,false,Rx,0,8,14,9B,32,23,3C,00,3A,11,
1282119,00000216,false,Rx,0,2,42,6C,00,00,00,00,00,00,
1286077,00000351,false,Rx,0,8,00,00,00,00,00,00,00,06,
1286097,00000215,false,Rx,0,6,FF,F4,FF,00,FF,FF,00,00,
1290365,00000292,false,Rx,0,8,FF,F8,0D,80,0F,FE,0F,00,
1290380,00000245,false,Rx,0,8,FF,E0,00,18,00,00,FF,E1,
1294255,00000177,false,Rx,0,8,FE,10,00,00,00,F8,00,00,
1294271,00000180,false,Rx,0,8,14,9B,32,23,3C,00,3B,11,
1294276,00000002,false,Rx,0,5,0D,00,00,07,B1,00,00,00,
1298343,000002DE,false,Rx,0,8,02,00,80,04,C0,00,05,D1,
1298355,00000284,false,Rx,0,8,00,00,00,00,00,00,50,D6,
1302493,00000174,false,Rx,0,8,FF,EF,FE,AA,0D,00,00,00,
1302509,00000177,false,Rx,0,8,FE,10,00,00,00,F8,00,00,
1306641,00000515,false,Rx,0,4,02,00,00,00,00,00,00,00,
1306690,00000002,false,Rx,0,5,0D,00,00,07,82,00,00,00,
1306712,00000215,false,Rx,0,6,FF,F4,FF,00,FF,FF,00,00,
1310703,00000292,false,Rx,0,8,FF,F8,0D,80,0F,FE,0E,00,
1310720,000002DE,false,Rx,0,8,02,00,80,04,C0,00,05,D1,
1314774,00000280,false,Rx,0,8,03,3F,C0,00,00,00,DB,40,
1314788,00000625,false,Rx,0,6,02,E0,FF,1D,20,00,00,00,
1314792,00000002,false,Rx,0,5,0D,00,00,07,93,00,00,00,
1318872,00000355,false,Rx,0,7,00,00,00,00,00,00,40,00,
1318887,00000174,false,Rx,0,8,FF,EF,FE,AA,0F,00,00,00,
1322927,00000177,false,Rx,0,8,FE,10,00,00,00,F8,00,00,
1322942,00000216,false,Rx,0,2,42,6C,00,00,00,00,00,00,
1322948,000001F9,false,Rx,0,8,28,00,14,B4,00,00,51,A8,
1327108,00000002,false,Rx,0,5,0D,00,00,07,E4,00,00,00,
1327166,00000215,false,Rx,0,6,FF,F4,FF,00,FF,FF,00,00,
1331138,00000354,false,Rx,0,8,00,00,00,00,00,18,14,00,
1331152,00000245,false,Rx,0,8,FF,E0,00,18,00,00,FF,E3,
1335358,00000177,false,Rx,0,8,FE,10,00,00,00,F8,00,00,
1335409,00000580,false,Rx,0,5,00,7D,40,B0,6C,00,00,00,
1335433,00000002,false,Rx,0,5,0D,00,00,07,F5,00,00,00,
1339350,000002DE,false,Rx,0,8,02,00,80,04,C0,00,05,D1,
1339362,000002DE,false,Rx,0,8,02,00,80,04,C0,00,05,D1,
1343479,00000284,false,Rx,0,8,00,00,00,00,00,00,52,D8,
1343495,000001F9,false,Rx,0,8,28,00,14,B4,00,00,51,A8,
1347676,0000035D,false,Rx,0,8,80,03,00,00,10,00,00,00,
1347692,00000002,false,Rx,0,5,0D,00,00,07,C6,00,00,00,
1347696,00000215,false,Rx,0,6,FF,F4,FF,00,FF,FF,00,00,
1351631,000002DE,false,Rx,0,8,02,00,80,04,C0,00,05,D1,
1351646,00000177,false,Rx,0,8,FE,10,00,00,00,F8,00,00,
1355839,000001F9,false,Rx,0,8,28,00,14,9B,00,00,51,A8,
1355890,000006E2,false,Rx,0,3,00,00,78,00,00,00,00,00,
1355913,00000285,false,Rx,0,8,00,00,00,00,00,00,52,D9,
1359884,00000002,false,Rx,0,5,0D,00,00,07,D7,00,00,00,
1359900,00000177,false,Rx,0,8,FE,10,00,00,00,F8,00,00,
1359905,00000216,false,Rx,0,2,42,6C,00,00,00,00,00,00,
1363999,00000160,false,Rx,0,7,33,C3,22,00,08,FF,E8,00,
1364103,00000182,false,Rx,0,8,00,00,00,00,00,12,40,CF,
1367968,000001F9,false,Rx,0,8,28,00,14,9B,00,00,51,A8,
1367979,00000245,false,Rx,0,8,FF,E0,00,18,00,00,FF,E1,
1372151,00000176,false,Rx,0,7,00,00,02,4B,00,00,04,00,
1372167,00000560,false,Rx,0,3,46,15,39,00,00,00,00,00,
1372170,00000285,false,Rx,0,8,00,00,00,00,00,00,53,DA,
1376234,00000280,false,Rx,0,8,03,3E,C0,00,00,00,DA,40,
1376254,00000625,false,Rx,0,6,02,E0,FF,1D,20,00,00,00,
1380314,00000284,false,Rx,0,8,00,00,00,00,00,00,54,DA,
1380331,00000174,false,Rx,0,8,FF,EF,FE,AA,05,00,00,00,
1384454,00000177,false,Rx,0,8,FE,10,00,00,00,F8,00,00,
1384504,00000216,false,Rx,0,2,42,6C,00,00,00,00,00,00,
1384524,00000002,false,Rx,0,5,0D,00,00,07,0A,00,00,00,
1388595,00000215,false,Rx,0,6,FF,F4,FF,00,FF,FF,00,00,
1388611,000002DE,false,Rx,0,8,02,00,80,04,C0,00,05,D1,
1388615,00000245,false,Rx,0,8,FF,E0,00,18,00,00,FF,E2,
1392633,00000174,false,Rx,0,8,FF,EF,FE,AA,06,00,00,00,
1392682,00000180,false,Rx,0,8,14,B4,32,13,3C,00,35,11,
1396744,00000551,false,Rx,0,8,78,7F,00,80,FF,02,80,FF,
1396759,00000002,false,Rx,0,5,0D,00,00,07,1B,00,00,00,
1400793,000002DE,false,Rx,0,8,02,00,80,04,C0,00,05,D1,
1400808,00000285,false,Rx,0,8,00,00,00,00,00,00,55,DC,
1400811,00000216,false,Rx,0,2,42,6C,00,00,00,00,00,00,
1404929,00000180,false,Rx,0,8,14,9B,32,13,3C,00,36,11,
1404944,000001F9,false,Rx,0,8,28,00,14,9B,00,00,51,A8,
1408996,00000515,false,Rx,0,4,02,00,00,00,00,00,00,00,
1409011,00000002,false,Rx,0,5,0D,00,00,07,6C,00,00,00,
1409014,00000177,false,Rx,0,8,FE,10,00,00,00,F8,00,00,
1413152,00000160,false,Rx,0,7,33,C3,22,00,08,FF,E8,00,
1413201,00000280,false,Rx,0,8,03,3E,C0,00,00,00,DB,40,
1417197,00000160,false,Rx,0,7,33,C3,21,00,08,FF,E8,00,
1417212,00000182,false,Rx,0,8,00,00,00,00,00,17,40,CF,
1421314,00000284,false,Rx,0,8,00,00,00,00,00,00,56,DC,
1421346,00000177,false,Rx,0,8,FE,10,00,00,00,F8,00,00,
1421365,00000216,false,Rx,0,2,42,6C,00,00,00,00,00,00,
1425409,00000180,false,Rx,0,8,14,9B,32,13,3C,00,37,11,
1425425,00000160,false,Rx,0,7,33,C3,23,00,08,FF,E8,00,
1429416,000002DE,false,Rx,0,8,02,00,80,04,C0,00,05,D1,
1429430,00000245,false,Rx,0,8,FF,E0,00,18,00,00,FF,E0,
1433629,00000177,false,Rx,0,8,FE,10,00,00,00,F8,00,00,
1433644,00000421,false,Rx,0,3,08,00,00,00,00,00,00,00,
1433647,00000280,false,Rx,0,8,03,3F,C0,00,00,00,D9,40,
1437657,00000002,false,Rx,0,5,0D,00,00,07,5F,00,00,00,
1437672,000002DE,false,Rx,0,8,02,00,80,04,C0,00,05,D1,
1441814,00000355,false,Rx,0,7,00,00,00,00,00,00,40,00,
1441915,00000284,false,Rx,0,8,00,00,00,00,00,00,57,DD,
1441923,00000177,false,Rx,0,8,FE,10,00,00,00,F8,00,00,
1445866,00000180,false,Rx,0,8,14,B4,32,23,3C,00,3A,11,
1445882,000001F9,false,Rx,0,8,28,00,14,B4,00,00,51,A8,
1450006,00000215,false,Rx,0,6,FF,F4,FF,00,FF,FF,00,00,
1450093,00000245,false,Rx,0,8,FF,E0,00,18,00,00,FF,E1,
1454099,00000174,false,Rx,0,8,FF,EF,FE,AA,0C,00,00,00,
1454118,00000280,false,Rx,0,8,03,3D,C0,00,00,00,DA,40,
1458196,00000180,false,Rx,0,8,14,B4,32,13,3C,00,3B,11,
1458213,00000002,false,Rx,0,5,0D,00,00,07,B1,00,00,00,
1458216,00000285,false,Rx,0,8,00,00,00,00,00,00,58,DF,
1462390,00000284,false,Rx,0,8,00,00,00,00,00,00,58,DE,
1462405,00000216,false,Rx,0,2,42,6C,00,00,00,00,00,00,
1466266,00000358,false,Rx,0,8,00,88,00,00,00,00,00,00,
1466280,00000160,false,Rx,0,7,33,C3,22,00,08,FF,E8,00,
1466284,00000182,false,Rx,0,8,00,00,00,00,00,1C,40,CF,
1470507,00000002,false,Rx,0,5,0D,00,00,07,82,00,00,00,
1470539,00000560,false,Rx,0,3,46,16,34,00,00,00,00,00,
1474624,00000180,false,Rx,0,8,14,9B,32,33,3C,00,38,11,
1474640,00000280,false,Rx,0,8,03,3E,C0,00,00,00,DE,40,
1474643,00000160,false,Rx,0,7,33,C3,21,00,08,FF,E8,00,
1478702,000002DE,false,Rx,0,8,02,00,80,04,C0,00,05,D1,
1478750,00000355,false,Rx,0,7,00,00,00,00,00,00,40,00,
1482715,00000177,false,Rx,0,8,FE,10,00,00,00,F8,00,00,
1482723,00000216,false,Rx,0,2,42,6C,00,00,00,00,00,00,
1482726,00000351,false,Rx,0,8,00,00,00,00,00,00,00,06,
1486807,00000180,false,Rx,0,8,14,82,32,33,3C,00,3E,11,
1486822,000001F9,false,Rx,0,8,28,00,14,82,00,00,51,A8,
1491182,00000292,false,Rx,0,8,FF,F8,0D,80,0F,FE,0E,00,
1491204,00000245,false,Rx,0,8,FF,E0,00,18,00,00,FF,E3,
1495071,00000421,false,Rx,0,3,08,00,00,00,00,00,00,00,
1495086,000005C5,false,Rx,0,8,44,01,CF,E2,00,0C,00,7F,
1495089,00000160,false,Rx,0,7,33,C3,22,00,08,FF,E8,00,
1499203,00000551,false,Rx,0,8,78,7F,00,80,FF,02,80,FF,
1499274,00000285,false,Rx,0,8,00,00,00,00,00,00,5A,E1,
1503316,00000174,false,Rx,0,8,FF,EF,FE,AA,01,00,00,00,
1503338,00000216,false,Rx,0,2,42,6C,00,00,00,00,00,00,
1503342,00000515,false,Rx,0,4,02,00,00,00,00,00,00,00,
1507347,00000180,false,Rx,0,8,14,82,32,13,3C,00,3D,11,
1507396,00000160,false,Rx,0,7,33,C3,22,00,08,FF,E8,00,
1511390,00000215,false,Rx,0,6,FF,F4,FF,00,FF,FF,00,00,
1511398,00000177,false,Rx,0,8,FE,10,00,00,00,F8,00,00,
1515522,00000280,false,Rx,0,8,03,3E,C0,00,00,00,D6,40,
1515537,00000002,false,Rx,0,5,0D,00,00,07,C6,00,00,00,
1515540,00000002,false,Rx,0,5,0D,00,00,07,D7,00,00,00,
1519688,00000285,false,Rx,0,8,00,00,00,00,00,00,5B,E2,
1519709,00000284,false,Rx,0,8,00,00,00,00,00,00,5B,E1,
1523834,00000177,false,Rx,0,8,FE,10,00,00,00,F8,00,00,
1523856,00000216,false,Rx,0,2,42,6C,00,00,00,00,00,00,
1523859,0000060D,false,Rx,0,8,06,06,00,00,00,00,00,00,
1527781,00000002,false,Rx,0,5,0D,00,00,07,28,00,00,00,
1527849,00000182,false,Rx,0,8,00,00,00,00,00,12,40,CF,
1531819,000002DE,false,Rx,0,8,02,00,80,04,C0,00,05,D1,
1531834,00000245,false,Rx,0,8,FF,E0,00,18,00,00,FF,E1,
1531837,00000177,false,Rx,0,8,FE,10,00,00,00,F8,00,00,
1536084,00000280,false,Rx,0,8,03,3F,C0,00,00,00,DE,40,
1536102,00000002,false,Rx,0,5,0D,00,00,07,39,00,00,00,
1540124,00000182,false,Rx,0,8,00,00,00,00,00,13,40,CF,
1540134,00000580,false,Rx,0,5,00,7A,40,B4,6C,00,00,00,
1544123,00000284,false,Rx,0,8,00,00,00,00,00,00,5C,E2,
1544138,00000216,false,Rx,0,2,42,6C,00,00,00,00,00,00,
1544143,0000035D,false,Rx,0,8,80,03,00,00,10,00,00,00,
1548334,00000160,false,Rx,0,7,33,C3,22,00,08,FF,E8,00,
1548359,00000002,false,Rx,0,5,0D,00,00,07,0A,00,00,00,
1548364,00000180,false,Rx,0,8,14,69,32,23,3D,00,34,11,
1552384,00000421,false,Rx,0,3,08,00,00,00,00,00,00,00,
1552401,00000280,false,Rx,0,8,03,3F,C0,00,00,00,D9,40,
1556457,00000215,false,Rx,0,6,FF,F4,FF,00,FF,FF,00,00,
1556508,00000002,false,Rx,0,5,0D,00,00,07,1B,00,00,00,
1556531,00000182,false,Rx,0,8,00,00,00,00,00,15,40,CF,
1560614,00000284,false,Rx,0,8,00,00,00,00,00,00,5D,E3,
1560631,00000176,false,Rx,0,7,00,00,02,49,00,00,07,00,
1564661,00000177,false,Rx,0,8,FE,10,00,00,00,F8,00,00,
1564676,00000216,false,Rx,0,2,42,6C,00,00,00,00,00,00,
1564681,00000002,false,Rx,0,5,0D,00,00,07,6C,00,00,00,
1568773,00000215,false,Rx,0,6,FF,F4,FF,00,FF,FF,00,00,
1568790,00000182,false,Rx,0,8,00,00,00,00,00,16,40,CF,
1572830,00000354,false,Rx,0,8,00,00,00,00,00,08,14,00,
1572846,00000177,false,Rx,0,8,FE,10,00,00,00,F8,00,00,
1572851,00000280,false,Rx,0,8,03,3F,C0,00,00,00,D6,40,
1576981,00000002,false,Rx,0,5,0D,00,00,07,7D,00,00,00,
1576997,00000625,false,Rx,0,6,02,E0,FF,1D,20,00,00,00,
1580994,000002DE,false,Rx,0,8,02,00,80,04,C0,00,05,D1,
1581009,00000180,false,Rx,0,8,14,9B,32,23,3C,00,37,11,
1581014,00000216,false,Rx,0,2,42,6C,00,00,00,00,00,00,
1585167,00000351,false,Rx,0,8,00,00,00,00,00,00,00,06,
1585220,00000160,false,Rx,0,7,33,D3,22,00,08,FF,E8,00,
1589252,00000002,false,Rx,0,5,0D,00,00,07,4E,00,00,00,
1589267,00000215,false,Rx,0,6,FF,F4,FF,00,FF,FF,00,00,
1589272,00000177,false,Rx,0,8,FE,10,00,00,00,F8,00,00,
1593343,000002DE,false,Rx,0,8,02,00,80,04,C0,00,05,D1,
1593359,00000280,false,Rx,0,8,03,3E,C0,00,00,00,DC,40,
1597434,000005C5,false,Rx,0,8,44,01,CF,E2,00,0C,00,7F,
1597448,00000002,false,Rx,0,5,0D,00,00,07,5F,00,00,00,
1601526,00000551,false,Rx,0,8,78,80,00,80,FF,02,80,FF,
1601543,00000177,false,Rx,0,8,FE,10,00,00,00,F8,00,00,
1605659,0000054C,false,Rx,0,8,79,78,C0,00,00,80,04,08,
1605675,000002DE,false,Rx,0,8,02,00,80,04,C0,00,05,D1,
1605680,00000515,false,Rx,0,4,02,00,00,00,00,00,00,00,
1609731,00000160,false,Rx,0,7,33,C3,22,00,08,FF,E8,00,
1609761,00000174,false,Rx,0,8,FF,EF,FE,AA,0C,00,00,00,
1609769,00000421,false,Rx,0,3,08,00,00,00,00,00,00,00,
1613862,00000002,false,Rx,0,5,0D,00,00,07,A0,00,00,00,
1613925,00000280,false,Rx,0,8,03,3F,C0,00,00,00,D6,40,
1617917,00000002,false,Rx,0,5,0D,00,00,07,B1,00,00,00,
1617935,000002DE,false,Rx,0,8,02,00,80,04,C0,00,05,D1,
1621999,00000174,false,Rx,0,8,FF,EF,FE,AA,0D,00,00,00,
1622015,00000177,false,Rx,0,8,FE,10,00,00,00,F8,00,00,
1622046,00000216,false,Rx,0,2,42,6C,00,00,00,00,00,00,
1626117,00000285,false,Rx,0,8,00,00,00,00,00,00,60,E7,
1626131,0000060D,false,Rx,0,8,06,06,00,00,00,00,00,00,
1630154,00000292,false,Rx,0,8,FF,F8,10,80,0F,FE,0E,00,
1630171,00000160,false,Rx,0,7,33,C3,22,00,08,FF,E8,00,
1630175,00000176,false,Rx,0,7,00,00,02,49,00,00,0E,00,
1634281,00000177,false,Rx,0,8,FE,10,00,00,00,F8,00,00,
1634295,00000280,false,Rx,0,8,03,3D,C0,00,00,00,D8,40,
1638326,00000002,false,Rx,0,5,0D,00,00,07,93,00,00,00,
1638342,00000284,false,Rx,0,8,00,00,00,00,00,00,61,E7,
1642498,00000174,false,Rx,0,8,FF,EF,FE,AA,0F,00,00,00,
1642512,00000180,false,Rx,0,8,14,B4,32,13,3C,00,3D,11,
1642515,00000580,false,Rx,0,5,00,79,40,B6,6C,00,00,00,
1646573,00000002,false,Rx,0,5,0D,00,00,07,E4,00,00,00,
1646587,00000215,false,Rx,0,6,FF,F4,FF,00,FF,FF,00,00,
1650681,000002DE,false,Rx,0,8,02,00,80,04,C0,00,05,D1,
1650696,00000245,false,Rx,0,8,FF,E0,00,18,00,00,FF,E3,
1654774,00000176,false,Rx,0,7,00,00,02,4D,00,00,00,00,
1654788,00000280,false,Rx,0,8,03,3E,C0,00,00,00,DD,40,
1654791,00000002,false,Rx,0,5,0D,00,00,07,82,00,00,00,
1658804,00000002,false,Rx,0,5,0D,00,00,07,F5,00,00,00,
1658819,00000285,false,Rx,0,8,00,00,00,00,00,00,62,E9,
1662953,000001F9,false,Rx,0,8,28,00,14,82,00,00,51,A8,
1662966,00000216,false,Rx,0,2,42,6C,00,00,00,00,00,00,
1662970,00000284,false,Rx,0,8,00,00,00,00,00,00,62,E8,
1667005,00000358,false,Rx,0,8,00,88,00,00,00,00,00,00,
1667046,00000215,false,Rx,0,6,FF,F4,FF,00,FF,FF,00,00,
1671145,00000245,false,Rx,0,8,FF,E0,00,18,00,00,FF,E0,
1671160,00000174,false,Rx,0,8,FF,EF,FE,AA,02,00,00,00,
1671163,00000180,false,Rx,0,8,14,82,32,33,3C,00,30,11,
1675248,00000560,false,Rx,0,3,46,70,00,00,00,00,00,00,
1675262,00000625,false,Rx,0,6,02,E0,FF,1D,20,00,00,00,
1679305,000002DE,false,Rx,0,8,02,00,80,04,C0,00,05,D1,
1679325,00000284,false,Rx,0,8,00,00,00,00,00,00,63,E9,
1679331,00000355,false,Rx,0,7,00,00,00,00,00,00,40,00,
1683421,00000160,false,Rx,0,7,33,C3,22,00,08,FF,E8,00,
1683438,00000351,false,Rx,0,8,00,00,00,00,00,00,00,06,
1687573,00000002,false,Rx,0,5,0D,00,00,07,28,00,00,00,
1687589,00000215,false,Rx,0,6,FF,F4,FF,00,FF,FF,00,00,
1691626,000002DE,false,Rx,0,8,02,00,80,04,C0,00,05,D1,
1691641,00000354,false,Rx,0,8,00,00,00,00,00,00,14,00,
1691644,000005C5,false,Rx,0,8,44,01,CF,E2,00,0C,00,7F,
1695764,00000002,false,Rx,0,5,0D,00,00,07,C6,00,00,00,
1695782,00000002,false,Rx,0,5,0D,00,00,07,39,00,00,00,
1699831,00000284,false,Rx,0,8,00,00,00,00,00,00,64,EA,
1699896,00000174,false,Rx,0,8,FF,EF,FE,AA,05,00,00,00,
1703926,00000177,false,Rx,0,8,FE,10,00,00,00,F8,00,00,
1703942,00000182,false,Rx,0,8,00,00,00,00,00,13,40,CF,
1708008,00000551,false,Rx,0,8,78,80,00,80,FF,02,80,FF,
1708044,00000215,false,Rx,0,6,FF,F4,FF,00,FF,FF,00,00,
1708051,000002DE,false,Rx,0,8,02,00,80,04,C0,00,05,D1,
1712123,00000176,false,Rx,0,7,00,00,02,4B,00,00,06,00,
1712141,00000177,false,Rx,0,8,FE,10,00,00,00,F8,00,00,
1716208,00000182,false,Rx,0,8,00,00,00,00,00,14,40,CF,
1716222,00000002,false,Rx,0,5,0D,00,00,07,1B,00,00,00,
1716225,000002DE,false,Rx,0,8,02,00,80,04,C0,00,05,D1,
1720483,00000285,false,Rx,0,8,00,00,00,00,00,00,65,EC,
1720530,00000355,false,Rx,0,7,00,00,00,00,00,00,40,00,
1724384,00000177,false,Rx,0,8,FE,10,00,00,00,F8,00,00,
1724396,0000060D,false,Rx,0,8,06,06,00,00,00,00,00,00,
1728503,00000002,false,Rx,0,5,0D,00,00,07,6C,00,00,00,
1728519,00000215,false,Rx,0,6,FF,F4,FF,00,FF,FF,00,00,
1728523,000002DE,false,Rx,0,8,02,00,80,04,C0,00,05,D1,
1732555,00000245,false,Rx,0,8,FF,E0,00,18,00,00,FF,E3,
1732570,00000280,false,Rx,0,8,03,3F,C0,00,00,00,D9,40,
1736704,000002DE,false,Rx,0,8,02,00,80,04,C0,00,05,D1,
1736719,00000002,false,Rx,0,5,0D,00,00,07,7D,00,00,00,
1740809,000002DE,false,Rx,0,8,02,00,80,04,C0,00,05,D1,
1740824,00000177,false,Rx,0,8,FE,10,00,00,00,F8,00,00,
1744872,00000180,false,Rx,0,8,14,B4,32,23,3C,00,37,11,
1744886,00000580,false,Rx,0,5,00,79,40,B0,6C,00,00,00,
1744889,0000035D,false,Rx,0,8,80,03,00,00,10,00,00,00,
1749014,00000002,false,Rx,0,5,0D,00,00,07,4E,00,00,00,
1749042,00000177,false,Rx,0,8,FE,10,00,00,00,F8,00,00,
1753094,00000285,false,Rx,0,8,00,00,00,00,00,00,66,ED,
1753110,00000160,false,Rx,0,7,33,C3,22,00,08,FF,E8,00,
1757102,00000280,false,Rx,0,8,03,3F,C0,00,00,00,D8,40,
1757121,00000002,false,Rx,0,5,0D,00,00,07,5F,00,00,00,
1757126,00000355,false,Rx,0,7,00,00,00,00,00,00,40,00,
1761284,00000174,false,Rx,0,8,FF,EF,FE,AA,0B,00,00,00,
1761298,00000177,false,Rx,0,8,FE,10,00,00,00,F8,00,00,
1761301,00000216,false,Rx,0,2,42,6C,00,00,00,00,00,00,
1765380,00000160,false,Rx,0,7,33,C3,21,00,08,FF,E8,00,
1765399,00000002,false,Rx,0,5,0D,00,00,07,A0,00,00,00,
1769463,00000215,false,Rx,0,6,FF,F4,FF,00,FF,FF,00,00,
1769480,00000354,false,Rx,0,8,00,00,00,00,00,10,14,00,
1773578,00000174,false,Rx,0,8,FF,EF,FE,AA,0C,00,00,00,
1773591,00000560,false,Rx,0,3,46,71,00,00,00,00,00,00,
1773595,00000280,false,Rx,0,8,03,3E,C0,00,00,00,DD,40,
1777657,00000002,false,Rx,0,5,0D,00,00,07,B1,00,00,00,
1777670,00000625,false,Rx,0,6,02,E0,FF,1D,20,00,00,00,
1777674,000002DE,false,Rx,0,8,02,00,80,04,C0,00,05,D1,
1781761,00000284,false,Rx,0,8,00,00,00,00,00,00,68,EE,
1781776,00000180,false,Rx,0,8,14,9B,32,13,3C,00,3B,11,
1785868,000001F9,false,Rx,0,8,28,00,14,9B,00,00,51,A8,
1785883,00000351,false,Rx,0,8,00,00,00,00,00,00,00,06,
1789938,00000002,false,Rx,0,5,0D,00,00,07,82,00,00,00,
1789954,00000215,false,Rx,0,6,FF,F4,FF,00,FF,FF,00,00,
1789958,00000421,false,Rx,0,3,08,00,00,00,00,00,00,00,
1794036,000005C5,false,Rx,0,8,44,01,CF,E2,00,0C,00,7F,
1794051,00000180,false,Rx,0,8,14,9B,32,33,3C,00,3C,11,
1798152,000001F9,false,Rx,0,8,28,00,14,9B,00,00,51,A8,
1798166,00000002,false,Rx,0,5,0D,00,00,07,93,00,00,00,
1798170,00000177,false,Rx,0,8,FE,10,00,00,00,F8,00,00,
1802263,00000216,false,Rx,0,2,42,6C,00,00,00,00,00,00,
1802277,0000054C,false,Rx,0,8,79,78,C0,00,00,80,04,08,
1806452,00000160,false,Rx,0,7,33,C3,22,00,08,FF,E8,00,
1806467,00000182,false,Rx,0,8,00,00,00,00,00,1D,40,CF,
1806472,00000292,false,Rx,0,8,FF,F8,0D,80,0F,FE,0E,00,
1810428,00000245,false,Rx,0,8,FF,E0,00,18,00,00,FF,E3,
1810443,00000177,false,Rx,0,8,FE,10,00,00,00,F8,00,00,
1814504,00000180,false,Rx,0,8,14,B4,32,23,3C,00,38,11,
1814518,00000280,false,Rx,0,8,03,3E,C0,00,00,00,D6,40,
1818630,00000002,false,Rx,0,5,0D,00,00,07,F5,00,00,00,
1818644,00000284,false,Rx,0,8,00,00,00,00,00,00,6A,F0,
1822701,00000174,false,Rx,0,8,FF,EF,FE,AA,01,00,00,00,
1822716,00000177,false,Rx,0,8,FE,10,00,00,00,F8,00,00,
1822718,00000216,false,Rx,0,2,42,6C,00,00,00,00,00,00,
1826805,00000002,false,Rx,0,5,0D,00,00,07,C6,00,00,00,
1826819,00000215,false,Rx,0,6,FF,F4,FF,00,FF,FF,00,00,
1826822,000002DE,false,Rx,0,8,02,00,80,04,C0,00,05,D1,
1830905,00000245,false,Rx,0,8,FF,E0,00,18,00,00,FF,E0,
1830919,00000177,false,Rx,0,8,FE,10,00,00,00,F8,00,00,
1835010,00000180,false,Rx,0,8,14,9B,32,23,3C,00,30,11,
1835046,000001F9,false,Rx,0,8,28,00,14,9B,00,00,51,A8,
1839153,00000002,false,Rx,0,5,0D,00,00,07,D7,00,00,00,
1839171,000002DE,false,Rx,0,8,02,00,80,04,C0,00,05,D1,
1843202,00000285,false,Rx,0,8,00,00,00,00,00,00,6B,F2,
1843217,00000216,false,Rx,0,2,42,6C,00,00,00,00,00,00,
1843220,00000160,false,Rx,0,7,33,C3,21,00,08,FF,E8,00,
1847301,00000182,false,Rx,0,8,00,00,00,00,00,11,40,CF,
1847315,00000580,false,Rx,0,5,00,78,40,B2,6C,00,00,00,
1847318,00000002,false,Rx,0,5,0D,00,00,07,28,00,00,00,
1851383,00000421,false,Rx,0,3,08,00,00,00,00,00,00,00,
1851397,00000160,false,Rx,0,7,33,C3,22,00,08,FF,E8,00,
1855479,00000280,false,Rx,0,8,03,3E,C0,00,00,00,D7,40,
1855494,00000160,false,Rx,0,7,33,C3,21,00,08,FF,E8,00,
1855497,00000002,false,Rx,0,5,0D,00,00,07,39,00,00,00,
1859572,00000285,false,Rx,0,8,00,00,00,00,00,00,6C,F3,
1859586,000002DE,false,Rx,0,8,02,00,80,04,C0,00,05,D1,
1863675,00000176,false,Rx,0,7,00,00,02,47,00,00,05,00,
1863689,00000177,false,Rx,0,8,FE,10,00,00,00,F8,00,00,
1867779,000001F9,false,Rx,0,8,28,00,14,B4,00,00,51,A8,
1867793,00000002,false,Rx,0,5,0D,00,00,07,0A,00,00,00,
1867796,00000215,false,Rx,0,6,FF,F4,FF,00,FF,FF,00,00,
1871858,00000245,false,Rx,0,8,FF,E0,00,18,00,00,FF,E2,
1871874,00000174,false,Rx,0,8,FF,EF,FE,AA,06,00,00,00,
1875947,00000280,false,Rx,0,8,03,3E,C0,00,00,00,D6,40,
1875960,00000182,false,Rx,0,8,00,00,00,00,00,14,40,CF,
1880052,00000625,false,Rx,0,6,02,E0,FF,1D,20,00,00,00,
1880070,000002DE,false,Rx,0,8,02,00,80,04,C0,00,05,D1,
1880074,00000284,false,Rx,0,8,00,00,00,00,00,00,6D,F3,
1884319,00000216,false,Rx,0,2,42,6C,00,00,00,00,00,00,
1884337,00000351,false,Rx,0,8,00,00,00,00,00,00,00,06,
1888270,00000160,false,Rx,0,7,33,C3,20,00,08,FF,E8,00,
1888287,000001F9,false,Rx,0,8,28,00,14,B4,00,00,51,A8,
1888290,00000215,false,Rx,0,6,FF,F4,FF,00,FF,FF,00,00,
1892388,00000177,false,Rx,0,8,FE,10,00,00,00,F8,00,00,
1892406,00000280,false,Rx,0,8,03,3D,C0,00,00,00,DC,40,
1896424,000005C5,false,Rx,0,8,44,01,CF,E2,00,0C,00,7F,
1896439,00000160,false,Rx,0,7,33,C3,21,00,08,FF,E8,00,
1900598,00000182,false,Rx,0,8,00,00,00,00,00,16,40,CF,
1900616,00000177,false,Rx,0,8,FE,10,00,00,00,F8,00,00,
1904620,0000054C,false,Rx,0,8,79,78,C0,00,00,80,04,08,
1904634,00000180,false,Rx,0,8,14,9B,32,13,3C,00,32,11,
1904638,00000515,false,Rx,0,4,02,00,00,00,00,00,00,00,
1908754,00000160,false,Rx,0,7,33,C3,21,00,08,FF,E8,00,
1908768,00000174,false,Rx,0,8,FF,EF,FE,AA,0A,00,00,00,
1908771,00000421,false,Rx,0,3,08,00,00,00,00,00,00,00,
1912824,00000180,false,Rx,0,8,14,9B,32,13,3C,00,37,11,
1912838,00000280,false,Rx,0,8,03,3E,C0,00,00,00,D6,40,
1916926,00000160,false,Rx,0,7,33,C3,22,00,08,FF,E8,00,
1916941,000002DE,false,Rx,0,8,02,00,80,04,C0,00,05,D1,
1920962,00000355,false,Rx,0,7,00,00,00,00,00,00,40,00,
1920979,00000177,false,Rx,0,8,FE,10,00,00,00,F8,00,00,
1920984,00000216,false,Rx,0,2,42,6C,00,00,00,00,00,00,
1925146,0000060D,false,Rx,0,8,06,06,00,00,00,00,00,00,
1925161,00000160,false,Rx,0,7,33,C3,22,00,08,FF,E8,00,
1929170,000001F9,false,Rx,0,8,28,00,14,B4,00,00,51,A8,
1929194,00000292,false,Rx,0,8,FF,F8,10,80,0F,FE,0F,00,
1933261,00000245,false,Rx,0,8,FF,E0,00,18,00,00,FF,E1,
1933275,00000177,false,Rx,0,8,FE,10,00,00,00,F8,00,00,
1937407,00000280,false,Rx,0,8,03,3E,C0,00,00,00,D4,40,
1937423,00000160,false,Rx,0,7,33,C3,22,00,08,FF,E8,00,
1937426,000001F9,false,Rx,0,8,28,00,14,B4,00,00,51,A8,
1941502,00000284,false,Rx,0,8,00,00,00,00,00,00,70,F6,
1941518,00000177,false,Rx,0,8,FE,10,00,00,00,F8,00,00,
1945613,0000035D,false,Rx,0,8,80,03,00,00,10,00,00,00,
1945628,00000002,false,Rx,0,5,0D,00,00,07,82,00,00,00,
1949680,00000180,false,Rx,0,8,14,B4,32,13,3C,00,3B,11,
1949694,00000215,false,Rx,0,6,FF,F4,FF,00,FF,FF,00,00,
1953791,00000245,false,Rx,0,8,FF,E0,00,18,00,00,FF,E2,
1953806,00000280,false,Rx,0,8,03,3F,C0,00,00,00,DD,40,
1953810,00000180,false,Rx,0,8,14,9B,32,23,3C,00,38,11,
1957874,00000002,false,Rx,0,5,0D,00,00,07,93,00,00,00,
1957888,00000160,false,Rx,0,7,33,C3,21,00,08,FF,E8,00,
1962016,000001F9,false,Rx,0,8,28,00,14,9B,00,00,51,A8,
1962047,00000216,false,Rx,0,2,42,6C,00,00,00,00,00,00,
1962051,00000180,false,Rx,0,8,14,9B,32,13,3C,00,3C,11,
1966080,00000358,false,Rx,0,8,00,88,00,00,00,00,00,00,
1966094,00000002,false,Rx,0,5,0D,00,00,07,E4,00,00,00,
1970321,00000245,false,Rx,0,8,FF,E0,00,18,00,00,FF,E3,
1970338,00000174,false,Rx,0,8,FF,EF,FE,AA,00,00,00,00,
1970344,00000560,false,Rx,0,3,46,73,00,00,00,00,00,00,
1974215,00000215,false,Rx,0,6,FF,F4,FF,00,FF,FF,00,00,
1974233,00000280,false,Rx,0,8,03,3E,C0,00,00,00,D9,40,
1978382,00000625,false,Rx,0,6,02,E0,FF,1D,20,00,00,00,
1978398,00000182,false,Rx,0,8,00,00,00,00,00,1E,40,CF,
1982450,000002DE,false,Rx,0,8,02,00,80,04,C0,00,05,D1,
1982475,00000176,false,Rx,0,7,00,00,02,47,00,00,01,00,
1982479,00000177,false,Rx,0,8,FE,10,00,00,00,F8,00,00,
1986584,00000351,false,Rx,0,8,00,00,00,00,00,00,00,06,
1986599,00000002,false,Rx,0,5,0D,00,00,07,C6,00,00,00,
1990680,00000160,false,Rx,0,7,33,C3,22,00,08,FF,E8,00,
1990700,000001F9,false,Rx,0,8,28,00,14,B4,00,00,51,A8,
1994750,00000174,false,Rx,0,8,FF,EF,FE,AA,02,00,00,00,
1994764,000005C5,false,Rx,0,8,44,01,CF,E2,00,0C,00,7F,
1994767,00000002,false,Rx,0,5,0D,00,00,07,D7,00,00,00,
1998851,00000002,false,Rx,0,5,0D,00,00,07,F5,00,00,00,
1998865,00000160,false,Rx,0,7,33,C3,22,00,08,FF,E8,00,
2002952,00000180,false,Rx,0,8,14,B4,32,23,3C,00,30,11,
2002966,0000054C,false,Rx,0,8,79,78,C0,00,00,80,04,08,
2002970,00000515,false,Rx,0,4,02,00,00,00,00,00,00,00,
2006992,00000182,false,Rx,0,8,00,00,00,00,00,10,40,CF,
2007007,00000002,false,Rx,0,5,0D,00,00,07,28,00,00,00,
2011121,00000215,false,Rx,0,6,FF,F4,FF,00,FF,FF,00,00,
2011136,00000177,false,Rx,0,8,FE,10,00,00,00,F8,00,00,
2011139,00000280,false,Rx,0,8,03,3E,C0,00,00,00,DA,40,
2015184,00000292,false,Rx,0,8,FF,F8,0D,80,0F,FE,0E,00,
2015199,00000002,false,Rx,0,5,0D,00,00,07,39,00,00,00,
2019332,00000160,false,Rx,0,7,33,C3,21,00,08,FF,E8,00,
2019346,000001F9,false,Rx,0,8,28,00,14,9B,00,00,51,A8,
2023472,00000177,false,Rx,0,8,FE,10,00,00,00,F8,00,00,
2023489,00000216,false,Rx,0,2,42,6C,00,00,00,00,00,00,
2023493,0000060D,false,Rx,0,8,06,06,00,00,00,00,00,00,
2027582,00000002,false,Rx,0,5,0D,00,00,07,0A,00,00,00,
2027601,00000215,false,Rx,0,6,FF,F4,FF,00,FF,FF,00,00,
2027605,000002DE,false,Rx,0,8,02,00,80,04,C0,00,05,D1,
2031643,00000160,false,Rx,0,7,33,C3,21,00,08,FF,E8,00,
2031660,00000174,false,Rx,0,8,FF,EF,FE,AA,06,00,00,00,
2035758,00000280,false,Rx,0,8,03,3F,C0,00,00,00,D7,40,
2035777,00000002,false,Rx,0,5,0D,00,00,07,1B,00,00,00,
2039841,000002DE,false,Rx,0,8,02,00,80,04,C0,00,05,D1,
2039861,000002DE,false,Rx,0,8,02,00,80,04,C0,00,05,D1,
2043909,00000284,false,Rx,0,8,00,00,00,00,00,00,75,FB,
2043924,00000216,false,Rx,0,2,42,6C,00,00,00,00,00,00,
2043928,0000035D,false,Rx,0,8,80,03,00,00,10,00,00,00,
2048058,00000355,false,Rx,0,7,00,00,00,00,00,00,40,00,
2048074,00000002,false,Rx,0,5,0D,00,00,07,6C,00,00,00,
2048078,00000215,false,Rx,0,6,FF,F4,FF,00,FF,FF,00,00,
2052126,00000580,false,Rx,0,5,00,78,40,B6,6C,00,00,00,
2052142,00000280,false,Rx,0,8,03,3F,C0,00,00,00,D6,40,
2056188,000002DE,false,Rx,0,8,02,00,80,04,C0,00,05,D1,
2056204,00000002,false,Rx,0,5,0D,00,00,07,7D,00,00,00,
2056207,00000284,false,Rx,0,8,00,00,00,00,00,00,76,FC,
2060313,000002DE,false,Rx,0,8,02,00,80,04,C0,00,05,D1,
2060331,00000176,false,Rx,0,7,00,00,02,49,00,00,09,00,
2064366,000001F9,false,Rx,0,8,28,00,14,9B,00,00,51,A8,
2064382,00000216,false,Rx,0,2,42,6C,00,00,00,00,00,00,
2064386,00000215,false,Rx,0,6,FF,F4,FF,00,FF,FF,00,00,
2068494,000002DE,false,Rx,0,8,02,00,80,04,C0,00,05,D1,
2068511,00000245,false,Rx,0,8,FF,E0,00,18,00,00,FF,E0,
2072579,00000176,false,Rx,0,7,00,00,02,4B,00,00,0A,00,
2072601,000001F9,false,Rx,0,8,28,00,14,9B,00,00,51,A8,
2076669,00000280,false,Rx,0,8,03,3F,C0,00,00,00,DD,40,
2076688,00000002,false,Rx,0,5,0D,00,00,07,5F,00,00,00,
2076691,00000625,false,Rx,0,6,02,E0,FF,1D,20,00,00,00,
2080748,000002DE,false,Rx,0,8,02,00,80,04,C0,00,05,D1,
2080762,00000355,false,Rx,0,7,00,00,00,00,00,00,40,00,
2080765,00000216,false,Rx,0,2,42,6C,00,00,00,00,00,00,
2084919,00000351,false,Rx,0,8,00,00,00,00,00,00,00,06,
2084933,00000285,false,Rx,0,8,00,00,00,00,00,00,76,FD,
2088996,00000002,false,Rx,0,5,0D,00,00,07,A0,00,00,00,
2089012,00000215,false,Rx,0,6,FF,F4,FF,00,FF,FF,00,00,
2093078,000001F9,false,Rx,0,8,28,00,14,82,00,00,51,A8,
2093095,00000280,false,Rx,0,8,03,3F,C0,00,00,00,D7,40,
2097116,000005C5,false,Rx,0,8,44,01,CF,E2,00,0C,00,7F,
2097132,000002DE,false,Rx,0,8,02,00,80,04,C0,00,05,D1,
2097136,00000002,false,Rx,0,5,0D,00,00,07,B1,00,00,00,
2101301,00000180,false,Rx,0,8,14,9B,32,23,3C,00,3A,11,
2101319,000001F9,false,Rx,0,8,28,00,14,9B,00,00,51,A8,
2105354,0000054C,false,Rx,0,8,79,78,C0,00,00,80,04,08,
2105370,000002DE,false,Rx,0,8,02,00,80,04,C0,00,05,D1,
2105374,00000515,false,Rx,0,4,02,00,00,00,00,00,00,00,
2109496,00000176,false,Rx,0,7,00,00,02,4B,00,00,0E,00,
2109513,00000177,false,Rx,0,8,FE,10,00,00,00,F8,00,00,
2113586,00000182,false,Rx,0,8,00,00,00,00,00,1B,40,CF,
2113601,00000551,false,Rx,0,8,78,82,00,80,FF,02,80,FF,
2117664,00000280,false,Rx,0,8,03,3E,C0,00,00,00,D6,40,
2117680,00000285,false,Rx,0,8,00,00,00,00,00,00,79,00,
2121788,00000174,false,Rx,0,8,FF,EF,FE,AA,0F,00,00,00,
2121805,00000177,false,Rx,0,8,FE,10,00,00,00,F8,00,00,
2125819,00000182,false,Rx,0,8,00,00,00,00,00,1C,40,CF,
2125835,00000216,false,Rx,0,2,42,6C,00,00,00,00,00,00,
2125839,00000215,false,Rx,0,6,FF,F4,FF,00,FF,FF,00,00,
2129928,00000292,false,Rx,0,8,FF,F8,0D,80,0F,FE,0E,00,
2129943,00000245,false,Rx,0,8,FF,E0,00,18,00,00,FF,E3,
2133995,00000177,false,Rx,0,8,FE,10,00,00,00,F8,00,00,
2134012,00000182,false,Rx,0,8,00,00,00,00,00,1D,40,CF,
2138185,00000280,false,Rx,0,8,03,3F,C0,00,00,00,D9,40,
2138200,00000002,false,Rx,0,5,0D,00,00,07,F5,00,00,00,
2138203,000002DE,false,Rx,0,8,02,00,80,04,C0,00,05,D1,
2142245,00000284,false,Rx,0,8,00,00,00,00,00,00,7A,00,
2142261,00000176,false,Rx,0,7,00,00,02,4B,00,00,01,00,
2146309,0000035D,false,Rx,0,8,80,03,00,00,10,00,00,00,
2146327,00000002,false,Rx,0,5,0D,00,00,07,C6,00,00,00,
2146331,00000215,false,Rx,0,6,FF,F4,FF,00,FF,FF,00,00,
2150415,000002DE,false,Rx,0,8,02,00,80,04,C0,00,05,D1,
2150436,00000245,false,Rx,0,8,FF,E0,00,18,00,00,FF,E0,
2154526,00000280,false,Rx,0,8,03,3F,C0,00,00,00,D8,40,
2154542,00000002,false,Rx,0,5,0D,00,00,07,82,00,00,00,
2154547,00000002,false,Rx,0,5,0D,00,00,07,D7,00,00,00,
2158627,000002DE,false,Rx,0,8,02,00,80,04,C0,00,05,D1,
2158645,00000355,false,Rx,0,7,00,00,00,00,00,00,40,00,
2162737,00000177,false,Rx,0,8,FE,10,00,00,00,F8,00,00,
2162752,00000216,false,Rx,0,2,42,6C,00,00,00,00,00,00,
2166797,00000182,false,Rx,0,8,00,00,00,00,00,10,40,CF,
2166813,00000002,false,Rx,0,5,0D,00,00,07,28,00,00,00,
2166816,00000215,false,Rx,0,6,FF,F4,FF,00,FF,FF,00,00,
2170832,00000292,false,Rx,0,8,FF,F8,0B,80,0F,FE,0E,00,
2170850,00000245,false,Rx,0,8,FF,E0,00,18,00,00,FF,E1,
2170855,00000560,false,Rx,0,3,46,11,48,00,00,00,00,00,
2175054,000006E2,false,Rx,0,3,00,00,78,00,00,00,00,00,
2175070,00000285,false,Rx,0,8,00,00,00,00,00,00,7B,02,
2175074,00000002,false,Rx,0,5,0D,00,00,07,39,00,00,00,
2179102,00000625,false,Rx,0,6,02,E0,FF,1D,20,00,00,00,
2179118,000002DE,false,Rx,0,8,02,00,80,04,C0,00,05,D1,
2183198,00000216,false,Rx,0,2,42,6C,00,00,00,00,00,00,
2183218,00000182,false,Rx,0,8,00,00,00,00,00,12,40,CF,
2183222,000001F9,false,Rx,0,8,28,00,14,9B,00,00,51,A8,
2187283,00000351,false,Rx,0,8,00,00,00,00,00,00,00,06,
2187300,00000002,false,Rx,0,5,0D,00,00,07,0A,00,00,00,
2191417,00000177,false,Rx,0,8,FE,10,00,00,00,F8,00,00,
2191433,00000285,false,Rx,0,8,00,00,00,00,00,00,7C,03,
2195495,00000160,false,Rx,0,7,33,C3,22,00,08,FF,E8,00,
2195512,00000182,false,Rx,0,8,00,00,00,00,00,13,40,CF,
2199579,000005C5,false,Rx,0,8,44,01,CF,E2,00,0C,00,7F,
2199596,00000355,false,Rx,0,7,00,00,00,00,00,00,40,00,
2199602,00000177,false,Rx,0,8,FE,10,00,00,00,F8,00,00,
2203701,00000216,false,Rx,0,2,42,6C,00,00,00,00,00,00,
2203718,0000054C,false,Rx,0,8,79,78,C0,00,00,80,04,08,
2207794,00000180,false,Rx,0,8,14,9B,32,23,3C,00,34,11,
2207810,00000215,false,Rx,0,6,FF,F4,FF,00,FF,FF,00,00,
2207813,00000245,false,Rx,0,8,FF,E0,00,18,00,00,FF,E3,
2211893,00000176,false,Rx,0,7,00,00,02,47,00,00,08,00,
2211909,00000421,false,Rx,0,3,08,00,00,00,00,00,00,00,
2216062,00000280,false,Rx,0,8,03,3F,C0,00,00,00,D6,40,
2216080,00000551,false,Rx,0,8,78,82,00,80,FF,02,80,FF,
2216085,00000002,false,Rx,0,5,0D,00,00,07,7D,00,00,00,
2220048,000002DE,false,Rx,0,8,02,00,80,04,C0,00,05,D1,
2220075,00000284,false,Rx,0,8,00,00,00,00,00,00,7E,04,
2224133,00000176,false,Rx,0,7,00,00,02,49,00,00,09,00,
2224150,000001F9,false,Rx,0,8,28,00,14,9B,00,00,51,A8,
2228199,0000060D,false,Rx,0,8,06,06,00,00,00,00,00,00,
2228215,00000002,false,Rx,0,5,0D,00,00,07,4E,00,00,00,
2228220,00000215,false,Rx,0,6,FF,F4,FF,00,FF,FF,00,00,
2232362,00000292,false,Rx,0,8,FF,F8,0B,80,0F,FE,0F,00,
2232380,00000280,false,Rx,0,8,03,40,C0,00,00,00,D8,40,
2236419,000001F9,false,Rx,0,8,28,00,14,9B,00,00,51,A8,
2236438,00000180,false,Rx,0,8,14,9B,32,23,3C,00,33,11,
2240533,00000002,false,Rx,0,5,0D,00,00,07,5F,00,00,00,
2240549,000002DE,false,Rx,0,8,02,00,80,04,C0,00,05,D1,
2240552,00000216,false,Rx,0,2,42,6C,00,00,00,00,00,00,
2244666,00000285,false,Rx,0,8,00,00,00,00,00,00,7F,06,
2244681,00000160,false,Rx,0,7,33,C3,22,00,08,FF,E8,00,
2248730,0000035D,false,Rx,0,8,80,03,00,00,10,00,00,00,
2248755,00000002,false,Rx,0,5,0D,00,00,07,A0,00,00,00,
2248758,00000177,false,Rx,0,8,FE,10,00,00,00,F8,00,00,
2252798,00000180,false,Rx,0,8,14,9B,32,23,3C,00,38,11,
2252813,00000280,false,Rx,0,8,03,3D,C0,00,00,00,DD,40,
2256930,00000160,false,Rx,0,7,33,C3,22,00,08,FF,E8,00,
2256947,00000182,false,Rx,0,8,00,00,00,00,00,19,40,CF,
2261050,000002DE,false,Rx,0,8,02,00,80,04,C0,00,05,D1,
2261065,00000177,false,Rx,0,8,FE,10,00,00,00,F8,00,00,
2261068,00000216,false,Rx,0,2,42,6C,00,00,00,00,00,00,
2265097,00000180,false,Rx,0,8,14,82,32,23,3C,00,39,11,
2265111,00000160,false,Rx,0,7,33,C3,22,00,08,FF,E8,00,
2269151,00000215,false,Rx,0,6,FF,F4,FF,00,FF,FF,00,00,
2269166,00000245,false,Rx,0,8,FF,E0,00,18,00,00,FF,E2,
2273324,00000177,false,Rx,0,8,FE,10,00,00,00,F8,00,00,
2273344,00000560,false,Rx,0,3,46,12,30,00,00,00,00,00,
2273347,00000280,false,Rx,0,8,03,3E,C0,00,00,00,D8,40,
2277425,000006E2,false,Rx,0,3,00,00,79,00,00,00,00,00,
2277440,00000625,false,Rx,0,6,02,E0,FF,1D,20,00,00,00,
2277444,000002DE,false,Rx,0,8,02,00,80,04,C0,00,05,D1,
2281515,00000284,false,Rx,0,8,00,00,00,00,00,00,81,07,
2281531,00000176,false,Rx,0,7,00,00,02,4B,00,00,0F,00,
2281534,00000216,false,Rx,0,2,42,6C,00,00,00,00,00,00,
2285649,00000180,false,Rx,0,8,14,B4,32,23,3C,00,3C,11,
2285665,00000351,false,Rx,0,8,00,00,00,00,00,00,00,06,
2289693,00000002,false,Rx,0,5,0D,00,00,07,E4,00,00,00,
2289713,00000215,false,Rx,0,6,FF,F4,FF,00,FF,FF,00,00,
2293818,00000177,false,Rx,0,8,FE,10,00,00,00,F8,00,00,
2293833,000005C5,false,Rx,0,8,44,01,CF,E2,00,0C,00,7F,
2293837,00000180,false,Rx,0,8,14,82,32,23,3C,00,3A,11,
2297874,00000160,false,Rx,0,7,33,C3,22,00,08,FF,E8,00,
2297888,00000002,false,Rx,0,5,0D,00,00,07,F5,00,00,00,
2302047,00000177,false,Rx,0,8,FE,10,00,00,00,F8,00,00,
2302060,0000054C,false,Rx,0,8,79,78,C0,00,00,80,04,08,
2305993,00000180,false,Rx,0,8,14,B4,32,23,3C,00,3D,11,
2306007,00000515,false,Rx,0,4,02,00,00,00,00,00,00,00,
2306011,00000160,false,Rx,0,7,33,C3,21,00,08,FF,E8,00,
2310352,00000174,false,Rx,0,8,FF,EF,FE,AA,02,00,00,00,
2310368,00000177,false,Rx,0,8,FE,10,00,00,00,F8,00,00,
2314255,00000180,false,Rx,0,8,14,B4,32,13,3C,00,3E,11,
2314272,00000280,false,Rx,0,8,03,3F,C0,00,00,00,D9,40,
2318359,00000160,false,Rx,0,7,33,C3,22,00,08,FF,E8,00,
2318374,00000355,false,Rx,0,7,00,00,00,00,00,00,40,00,
2318377,00000176,false,Rx,0,7,00,00,02,49,00,00,03,00,
2322439,00000177,false,Rx,0,8,FE,10,00,00,00,F8,00,00,
2322453,00000216,false,Rx,0,2,42,6C,00,00,00,00,00,00,
2326613,0000060D,false,Rx,0,8,06,06,00,00,00,00,00,00,
2326629,00000002,false,Rx,0,5,0D,00,00,07,28,00,00,00,
2326632,00000215,false,Rx,0,6,FF,F4,FF,00,FF,FF,00,00,
2330671,00000292,false,Rx,0,8,FF,F8,10,80,0F,FE,0E,00,
2330686,00000245,false,Rx,0,8,FF,E0,00,18,00,00,FF,E1,
2334742,00000421,false,Rx,0,3,08,00,00,00,00,00,00,00,
2334758,00000280,false,Rx,0,8,03,3F,C0,00,00,00,D3,40,
2334761,00000160,false,Rx,0,7,33,C3,22,00,08,FF,E8,00,
2338834,00000182,false,Rx,0,8,00,00,00,00,00,11,40,CF,
2338848,000002DE,false,Rx,0,8,02,00,80,04,C0,00,05,D1,
2342960,00000284,false,Rx,0,8,00,00,00,00,00,00,84,0A,
2342975,00000216,false,Rx,0,2,42,6C,00,00,00,00,00,00,
2342978,0000035D,false,Rx,0,8,80,03,00,00,10,00,00,00,
2346998,00000180,false,Rx,0,8,14,9B,32,23,3C,00,3F,11,
2347012,00000160,false,Rx,0,7,33,C3,21,00,08,FF,E8,00,
2351139,00000215,false,Rx,0,6,FF,F4,FF,00,FF,FF,00,00,
2351158,00000177,false,Rx,0,8,FE,10,00,00,00,F8,00,00,
2355168,00000280,false,Rx,0,8,03,3E,C0,00,00,00,D8,40,
2355183,00000180,false,Rx,0,8,14,B4,32,13,3C,00,32,11,
2355188,00000002,false,Rx,0,5,0D,00,00,07,1B,00,00,00,
2359301,00000355,false,Rx,0,7,00,00,00,00,00,00,40,00,
2359317,00000177,false,Rx,0,8,FE,10,00,00,00,F8,00,00,
2363412,00000216,false,Rx,0,2,42,6C,00,00,00,00,00,00,
2363427,00000160,false,Rx,0,7,33,C3,22,00,08,FF,E8,00,
2363433,00000358,false,Rx,0,8,00,88,00,00,00,00,00,00,
2367460,00000180,false,Rx,0,8,14,B4,32,13,3C,00,34,11,
2367476,00000215,false,Rx,0,6,FF,F4,FF,00,FF,FF,00,00,
2371608,00000245,false,Rx,0,8,FF,E0,00,18,00,00,FF,E3,
2371624,00000560,false,Rx,0,3,46,13,31,00,00,00,00,00,
2371629,00000280,false,Rx,0,8,03,40,C0,00,00,00,DB,40,
2375709,00000002,false,Rx,0,5,0D,00,00,07,6C,00,00,00,
2375723,00000002,false,Rx,0,5,0D,00,00,07,7D,00,00,00,
2379749,00000160,false,Rx,0,7,33,C3,21,00,08,FF,E8,00,
2379775,000001F9,false,Rx,0,8,28,00,14,9B,00,00,51,A8,
2379780,000006E2,false,Rx,0,3,00,00,7A,00,00,00,00,00,
2383916,00000216,false,Rx,0,2,42,6C,00,00,00,00,00,00,
2383948,00000625,false,Rx,0,6,02,E0,FF,1D,20,00,00,00,
2383955,00000351,false,Rx,0,8,00,00,00,00,00,00,00,06,
2388039,00000002,false,Rx,0,5,0D,00,00,07,4E,00,00,00,
2388075,000002DE,false,Rx,0,8,02,00,80,04,C0,00,05,D1,
2392098,00000176,false,Rx,0,7,00,00,02,4D,00,00,0A,00,
2392117,00000421,false,Rx,0,3,08,00,00,00,00,00,00,00,
2392121,00000160,false,Rx,0,7,33,C3,21,00,08,FF,E8,00,
2396139,00000280,false,Rx,0,8,03,40,C0,00,00,00,D5,40,
2396155,00000002,false,Rx,0,5,0D,00,00,07,5F,00,00,00,
2400305,00000180,false,Rx,0,8,14,9B,32,23,3C,00,37,11,
2400321,00000285,false,Rx,0,8,00,00,00,00,00,00,87,0E,
2400324,00000176,false,Rx,0,7,00,00,02,4B,00,00,0B,00,
2404382,00000177,false,Rx,0,8,FE,10,00,00,00,F8,00,00,
2404425,00000515,false,Rx,0,4,02,00,00,00,00,00,00,00,
2408468,00000002,false,Rx,0,5,0D,00,00,07,A0,00,00,00,
2408488,00000215,false,Rx,0,6,FF,F4,FF,00,FF,FF,00,00,
2408495,00000180,false,Rx,0,8,14,9B,32,13,3C,00,38,11,
2412572,00000354,false,Rx,0,8,00,00,00,00,00,10,14,00,
2412586,00000280,false,Rx,0,8,03,3E,C0,00,00,00,D8,40,
2416654,000005C5,false,Rx,0,8,44,01,CF,E2,00,0C,00,7F,
2416666,00000002,false,Rx,0,5,0D,00,00,07,B1,00,00,00,
2420704,00000160,false,Rx,0,7,33,C3,22,00,08,FF,E8,00,
2420719,00000177,false,Rx,0,8,FE,10,00,00,00,F8,00,00,
2420723,00000216,false,Rx,0,2,42,6C,00,00,00,00,00,00,
2424797,00000180,false,Rx,0,8,14,9B,32,23,3C,00,39,11,
2424813,0000060D,false,Rx,0,8,06,06,00,00,00,00,00,00,
2428956,00000215,false,Rx,0,6,FF,F4,FF,00,FF,FF,00,00,
2428970,000002DE,false,Rx,0,8,02,00,80,04,C0,00,05,D1,
2428976,00000182,false,Rx,0,8,00,00,00,00,00,1A,40,CF,
2433016,00000176,false,Rx,0,7,00,00,02,49,00,00,0E,00,
2433054,00000177,false,Rx,0,8,FE,10,00,00,00,F8,00,00,
2437198,00000280,false,Rx,0,8,03,3F,C0,00,00,00,D8,40,
2437213,00000002,false,Rx,0,5,0D,00,00,07,93,00,00,00,
2441267,00000355,false,Rx,0,7,00,00,00,00,00,00,40,00,
2441284,00000180,false,Rx,0,8,14,82,32,23,3C,00,3B,11,
2445365,00000284,false,Rx,0,8,00,00,00,00,00,00,89,0F,
2445381,0000035D,false,Rx,0,8,80,03,00,00,10,00,00,00,
2445385,00000002,false,Rx,0,5,0D,00,00,07,E4,00,00,00,
2449469,00000215,false,Rx,0,6,FF,F4,FF,00,FF,FF,00,00,
2449487,000002DE,false,Rx,0,8,02,00,80,04,C0,00,05,D1,
2453550,00000354,false,Rx,0,8,00,00,00,00,00,18,14,00,
2453571,00000280,false,Rx,0,8,03,3F,C0,00,00,00,D8,40,
2453575,00000002,false,Rx,0,5,0D,00,00,07,82,00,00,00,
2457627,00000002,false,Rx,0,5,0D,00,00,07,F5,00,00,00,
2457649,000002DE,false,Rx,0,8,02,00,80,04,C0,00,05,D1,
2461701,00000174,false,Rx,0,8,FF,EF,FE,AA,01,00,00,00,
2461714,00000177,false,Rx,0,8,FE,10,00,00,00,F8,00,00,
2461718,00000216,false,Rx,0,2,42,6C,00,00,00,00,00,00,
2465849,00000358,false,Rx,0,8,00,88,00,00,00,00,00,00,
2465867,00000002,false,Rx,0,5,0D,00,00,07,C6,00,00,00,
2469940,00000215,false,Rx,0,6,FF,F4,FF,00,FF,FF,00,00,
2469956,00000245,false,Rx,0,8,FF,E0,00,18,00,00,FF,E0,
2469959,00000180,false,Rx,0,8,14,9B,32,23,3C,00,3E,11,
2474168,00000177,false,Rx,0,8,FE,10,00,00,00,F8,00,00,
2474186,00000280,false,Rx,0,8,03,3E,C0,00,00,00,DC,40,
2478144,00000002,false,Rx,0,5,0D,00,00,07,D7,00,00,00,
2478158,00000625,false,Rx,0,6,02,E0,FF,1D,20,00,00,00,
2482399,00000285,false,Rx,0,8,00,00,00,00,00,00,8B,12,
2482414,00000355,false,Rx,0,7,00,00,00,00,00,00,40,00,
2482417,00000216,false,Rx,0,2,42,6C,00,00,00,00,00,00,
2486348,00000351,false,Rx,0,8,00,00,00,00,00,00,00,06,
2486366,00000285,false,Rx,0,8,00,00,00,00,00,00,8A,11,
2486370,00000002,false,Rx,0,5,0D,00,00,07,28,00,00,00,
2490379,000002DE,false,Rx,0,8,02,00,80,04,C0,00,05,D1,
2490393,000001F9,false,Rx,0,8,28,00,14,9B,00,00,51,A8,
2494513,00000280,false,Rx,0,8,03,3D,C0,00,00,00,DA,40,
2494528,000005C5,false,Rx,0,8,44,01,CF,E2,00,0C,00,7F,
2498619,00000215,false,Rx,0,6,FF,F4,FF,00,FF,FF,00,00,
2498633,00000002,false,Rx,0,5,0D,00,00,07,39,00,00,00,
2502719,000001F9,false,Rx,0,8,28,00,14,69,00,00,51,A8,
2502739,0000054C,false,Rx,0,8,79,78,C0,00,00,80,04,08,
2502742,000002DE,false,Rx,0,8,02,00,80,04,C0,00,05,D1,
2506807,00000515,false,Rx,0,4,02,00,00,00,00,00,00,00,
2506821,00000002,false,Rx,0,5,0D,00,00,07,0A,00,00,00,
2510902,00000174,false,Rx,0,8,FF,EF,FE,AA,06,00,00,00,
2510916,00000177,false,Rx,0,8,FE,10,00,00,00,F8,00,00,
2510919,00000421,false,Rx,0,3,08,00,00,00,00,00,00,00,
2515003,00000215,false,Rx,0,6,FF,F4,FF,00,FF,FF,00,00,
2515038,00000280,false,Rx,0,8,03,3D,C0,00,00,00,D9,40,
2515043,00000002,false,Rx,0,5,0D,00,00,07,1B,00,00,00,
2519008,000002DE,false,Rx,0,8,02,00,80,04,C0,00,05,D1,
2519041,00000355,false,Rx,0,7,00,00,00,00,00,00,40,00,
2523152,00000177,false,Rx,0,8,FE,10,00,00,00,F8,00,00,
2523167,00000182,false,Rx,0,8,00,00,00,00,00,13,40,CF,
2527297,0000060D,false,Rx,0,8,06,06,00,00,00,00,00,00,
2527310,00000002,false,Rx,0,5,0D,00,00,07,6C,00,00,00,
2527313,00000215,false,Rx,0,6,FF,F4,FF,00,FF,FF,00,00,
2531379,00000354,false,Rx,0,8,00,00,00,00,00,08,14,00,
2531392,00000174,false,Rx,0,8,FF,EF,FE,AA,08,00,00,00,
2535424,00000280,false,Rx,0,8,03,3E,C0,00,00,00,DB,40,
2535445,00000002,false,Rx,0,5,0D,00,00,07,7D,00,00,00,
2539638,00000285,false,Rx,0,8,00,00,00,00,00,00,8D,14,
2539651,000002DE,false,Rx,0,8,02,00,80,04,C0,00,05,D1,
2543666,00000284,false,Rx,0,8,00,00,00,00,00,00,8E,14,
2543679,00000216,false,Rx,0,2,42,6C,00,00,00,00,00,00,
2543682,0000035D,false,Rx,0,8,80,03,00,00,10,00,00,00,
2547692,00000285,false,Rx,0,8,00,00,00,00,00,00,8E,15,
2547708,00000002,false,Rx,0,5,0D,00,00,07,4E,00,00,00,
2547711,00000215,false,Rx,0,6,FF,F4,FF,00,FF,FF,00,00,
2551820,00000182,false,Rx,0,8,00,00,00,00,00,16,40,CF,
2551839,000001F9,false,Rx,0,8,28,00,14,82,00,00,51,A8,
2555910,00000280,false,Rx,0,8,03,3E,C0,00,00,00,DA,40,
2555928,000002DE,false,Rx,0,8,02,00,80,04,C0,00,05,D1,
2559994,00000002,false,Rx,0,5,0D,00,00,07,5F,00,00,00,
2560009,00000177,false,Rx,0,8,FE,10,00,00,00,F8,00,00,
2564105,00000160,false,Rx,0,7,33,C3,22,00,08,FF,E8,00,
2564121,00000580,false,Rx,0,5,00,7A,40,B0,6C,00,00,00,
2564125,00000285,false,Rx,0,8,00,00,00,00,00,00,8F,16,
2568206,00000358,false,Rx,0,8,00,88,00,00,00,00,00,00,
2568222,00000245,false,Rx,0,8,FF,E0,00,18,00,00,FF,E1,
2572249,00000177,false,Rx,0,8,FE,10,00,00,00,F8,00,00,
2572263,00000560,false,Rx,0,3,46,15,39,00,00,00,00,00,
2572266,00000182,false,Rx,0,8,00,00,00,00,00,18,40,CF,
2576419,000001F9,false,Rx,0,8,28,00,14,82,00,00,51,A8,
2576435,00000625,false,Rx,0,6,02,E0,FF,1D,20,00,00,00,
2580510,00000284,false,Rx,0,8,00,00,00,00,00,00,90,16,
2580528,00000176,false,Rx,0,7,00,00,02,45,00,00,0D,00,
2584599,00000177,false,Rx,0,8,FE,10,00,00,00,F8,00,00,
2584618,00000216,false,Rx,0,2,42,6C,00,00,00,00,00,00,
2584621,00000002,false,Rx,0,5,0D,00,00,07,82,00,00,00,
2588714,00000215,false,Rx,0,6,FF,F4,FF,00,FF,FF,00,00,
2588730,000002DE,false,Rx,0,8,02,00,80,04,C0,00,05,D1,
2588733,00000245,false,Rx,0,8,FF,E0,00,18,00,00,FF,E2,
2592779,00000177,false,Rx,0,8,FE,10,00,00,00,F8,00,00,
2592800,000005C5,false,Rx,0,8,44,01,CF,E2,00,0C,00,7F,
2596873,00000002,false,Rx,0,5,0D,00,00,07,A0,00,00,00,
2596889,00000002,false,Rx,0,5,0D,00,00,07,93,00,00,00,
2600986,000002DE,false,Rx,0,8,02,00,80,04,C0,00,05,D1,
2601001,00000177,false,Rx,0,8,FE,10,00,00,00,F8,00,00,
2601008,0000054C,false,Rx,0,8,79,78,C0,00,00,80,04,08,
2605087,000001F9,false,Rx,0,8,28,00,14,82,00,00,51,A8,
2605103,00000515,false,Rx,0,4,02,00,00,00,00,00,00,00,
2609137,00000002,false,Rx,0,5,0D,00,00,07,E4,00,00,00,
2609150,00000176,false,Rx,0,7,00,00,02,45,00,00,00,00,
2609156,00000177,false,Rx,0,8,FE,10,00,00,00,F8,00,00,
2613251,00000285,false,Rx,0,8,00,00,00,00,00,00,91,18,
2613265,00000160,false,Rx,0,7,33,C3,22,00,08,FF,E8,00,
2617353,000001F9,false,Rx,0,8,28,00,14,82,00,00,51,A8,
2617381,00000285,false,Rx,0,8,00,00,00,00,00,00,92,19,
2621487,00000174,false,Rx,0,8,FF,EF,FE,AA,01,00,00,00,
2621508,00000177,false,Rx,0,8,FE,10,00,00,00,F8,00,00,
2621511,00000216,false,Rx,0,2,42,6C,00,00,00,00,00,00,
2625579,00000160,false,Rx,0,7,33,C3,22,00,08,FF,E8,00,
2625594,00000002,false,Rx,0,5,0D,00,00,07,C6,00,00,00,
2629672,00000215,false,Rx,0,6,FF,F4,FF,00,FF,FF,00,00,
2629688,000002DE,false,Rx,0,8,02,00,80,04,C0,00,05,D1,
2629691,00000176,false,Rx,0,7,00,00,02,47,00,00,02,00,
2633734,00000421,false,Rx,0,3,08,00,00,00,00,00,00,00,
2633752,000001F9,false,Rx,0,8,28,00,14,69,00,00,51,A8,
2637887,00000002,false,Rx,0,5,0D,00,00,07,D7,00,00,00,
2637903,00000180,false,Rx,0,8,14,82,32,23,3C,00,3C,11,
2637907,000002DE,false,Rx,0,8,02,00,80,04,C0,00,05,D1,
2641958,00000355,false,Rx,0,7,00,00,00,00,00,00,40,00,
2641974,00000160,false,Rx,0,7,33,D3,23,00,08,FF,E8,00,
2646078,000001F9,false,Rx,0,8,28,00,14,69,00,00,51,A8,
2646095,0000035D,false,Rx,0,8,80,03,00,00,10,00,00,00,
2650220,00000002,false,Rx,0,5,0D,00,00,07,28,00,00,00,
2650235,00000215,false,Rx,0,6,FF,F4,FF,00,FF,FF,00,00,
2650239,00000177,false,Rx,0,8,FE,10,00,00,00,F8,00,00,
2654287,00000280,false,Rx,0,8,03,3E,C0,00,00,00,DE,40,
2654303,00000182,false,Rx,0,8,00,00,00,00,00,10,40,CF,
2658387,000001F9,false,Rx,0,8,28,00,14,82,00,00,51,A8,
2658403,00000002,false,Rx,0,5,0D,00,00,07,39,00,00,00,
2662471,00000177,false,Rx,0,8,FE,10,00,00,00,F8,00,00,
2662486,00000216,false,Rx,0,2,42,6C,00,00,00,00,00,00,
2662490,00000285,false,Rx,0,8,00,00,00,00,00,00,93,1A,
2666635,00000160,false,Rx,0,7,33,C3,22,00,08,FF,E8,00,
2666652,000001F9,false,Rx,0,8,28,00,14,82,00,00,51,A8,
2670665,00000245,false,Rx,0,8,FF,E0,00,18,00,00,FF,E2,
2670681,00000177,false,Rx,0,8,FE,10,00,00,00,F8,00,00,
2670685,00000560,false,Rx,0,3,46,16,34,00,00,00,00,00,
2674741,00000180,false,Rx,0,8,14,82,32,23,3C,00,31,11,
2674756,00000280,false,Rx,0,8,03,3F,C0,00,00,00,D9,40,
2678824,00000625,false,Rx,0,6,02,E0,FF,1D,20,00,00,00,
2678837,00000284,false,Rx,0,8,00,00,00,00,00,00,95,1B,
2682943,00000176,false,Rx,0,7,00,00,02,47,00,00,07,00,
2682956,00000177,false,Rx,0,8,FE,10,00,00,00,F8,00,00,
2682958,00000216,false,Rx,0,2,42,6C,00,00,00,00,00,00,
2687062,00000002,false,Rx,0,5,0D,00,00,07,6C,00,00,00,
2687077,00000215,false,Rx,0,6,FF,F4,FF,00,FF,FF,00,00,
2687080,000002DE,false,Rx,0,8,02,00,80,04,C0,00,05,D1,
2691062,00000245,false,Rx,0,8,FF,E0,00,18,00,00,FF,E3,
2691076,00000177,false,Rx,0,8,FE,10,00,00,00,F8,00,00,
2695240,000005C5,false,Rx,0,8,44,01,CF,E2,00,0C,00,7F,
2695255,000001F9,false,Rx,0,8,28,00,14,82,00,00,51,A8,
2699315,00000002,false,Rx,0,5,0D,00,00,07,7D,00,00,00,
2699329,00000160,false,Rx,0,7,33,C3,23,00,08,FF,E8,00,
2699332,000002DE,false,Rx,0,8,02,00,80,04,C0,00,05,D1,
2703371,0000054C,false,Rx,0,8,79,78,C0,00,00,80,04,08,
2703395,00000160,false,Rx,0,7,33,C3,22,00,08,FF,E8,00,
2707482,00000180,false,Rx,0,8,14,82,32,23,3C,00,35,11,
2707498,00000515,false,Rx,0,4,02,00,00,00,00,00,00,00,
2711571,00000215,false,Rx,0,6,FF,F4,FF,00,FF,FF,00,00,
2711590,00000177,false,Rx,0,8,FE,10,00,00,00,F8,00,00,
2711595,00000280,false,Rx,0,8,03,3E,C0,00,00,00,DC,40,
2715710,00000285,false,Rx,0,8,00,00,00,00,00,00,96,1D,
2715732,00000160,false,Rx,0,7,33,C3,22,00,08,FF,E8,00,
2719824,000001F9,false,Rx,0,8,28,00,14,82,00,00,51,A8,
2719843,00000177,false,Rx,0,8,FE,10,00,00,00,F8,00,00,
2719846,00000216,false,Rx,0,2,42,6C,00,00,00,00,00,00,
2723887,00000180,false,Rx,0,8,14,82,32,23,3C,00,36,11,
2723903,0000060D,false,Rx,0,8,06,06,00,00,00,00,00,00,
2727992,00000215,false,Rx,0,6,FF,F4,FF,00,FF,FF,00,00,
2728009,000002DE,false,Rx,0,8,02,00,80,04,C0,00,05,D1,
2732098,00000245,false,Rx,0,8,FF,E0,00,18,00,00,FF,E1,
2732114,00000177,false,Rx,0,8,FE,10,00,00,00,F8,00,00,
2736142,00000280,false,Rx,0,8,03,3E,C0,00,00,00,D6,40,
2736157,000001F9,false,Rx,0,8,28,00,14,82,00,00,51,A8,
2736166,00000002,false,Rx,0,5,0D,00,00,07,B1,00,00,00,
2740297,00000284,false,Rx,0,8,00,00,00,00,00,00,98,1E,
2740313,00000174,false,Rx,0,8,FF,EF,FE,AA,0D,00,00,00,
2744356,00000177,false,Rx,0,8,FE,10,00,00,00,F8,00,00,
2744371,0000035D,false,Rx,0,8,80,03,00,00,10,00,00,00,
2748505,000001F9,false,Rx,0,8,28,00,14,82,00,00,51,A8,
2748518,00000215,false,Rx,0,6,FF,F4,FF,00,FF,FF,00,00,
2752626,00000245,false,Rx,0,8,FF,E0,00,18,00,00,FF,E2,
2752639,00000174,false,Rx,0,8,FF,EF,FE,AA,0E,00,00,00,
2756956,00000280,false,Rx,0,8,03,3E,C0,00,00,00,D8,40,
2756971,00000160,false,Rx,0,7,33,C3,22,00,08,FF,E8,00,
2756973,00000002,false,Rx,0,5,0D,00,00,07,93,00,00,00,
2760771,000001F9,false,Rx,0,8,28,00,14,82,00,00,51,A8,
2760784,00000284,false,Rx,0,8,00,00,00,00,00,00,99,1F,
2760787,00000216,false,Rx,0,2,42,6C,00,00,00,00,00,00,
2764879,00000160,false,Rx,0,7,33,C3,22,00,08,FF,E8,00,
2764893,00000358,false,Rx,0,8,00,88,00,00,00,00,00,00,
2768996,00000160,false,Rx,0,7,33,C3,22,00,08,FF,E8,00,
2769016,00000182,false,Rx,0,8,00,00,00,00,00,1B,40,CF,
2769040,00000560,false,Rx,0,3,46,17,0E,00,00,00,00,00,
2773164,00000180,false,Rx,0,8,14,82,32,23,3C,00,3B,11,
2773178,00000280,false,Rx,0,8,03,40,C0,00,00,00,DF,40,
2777180,00000160,false,Rx,0,7,33,C3,22,00,08,FF,E8,00,
2777193,00000285,false,Rx,0,8,00,00,00,00,00,00,9A,21,
2781213,00000174,false,Rx,0,8,FF,EF,FE,AA,01,00,00,00,
2781228,00000177,false,Rx,0,8,FE,10,00,00,00,F8,00,00,
2781231,00000216,false,Rx,0,2,42,6C,00,00,00,00,00,00,
2785352,00000351,false,Rx,0,8,00,00,00,00,00,00,00,06,
2785366,00000002,false,Rx,0,5,0D,00,00,07,C6,00,00,00,
2789495,000001F9,false,Rx,0,8,28,00,14,9B,00,00,51,A8,
2789510,000002DE,false,Rx,0,8,02,00,80,04,C0,00,05,D1,
2793531,00000174,false,Rx,0,8,FF,EF,FE,AA,02,00,00,00,
2793547,00000177,false,Rx,0,8,FE,10,00,00,00,F8,00,00,
2797654,000005C5,false,Rx,0,8,44,01,CF,E2,00,0C,00,7F,
2797668,00000002,false,Rx,0,5,0D,00,00,07,D7,00,00,00,
2797671,000001F9,false,Rx,0,8,28,00,14,9B,00,00,51,A8,
2801740,00000285,false,Rx,0,8,00,00,00,00,00,00,9B,22,
2801754,00000174,false,Rx,0,8,FF,EF,FE,AA,03,00,00,00,
2805933,0000054C,false,Rx,0,8,79,78,C0,00,00,80,04,08,
2805947,00000515,false,Rx,0,4,02,00,00,00,00,00,00,00,
2805951,00000002,false,Rx,0,5,0D,00,00,07,28,00,00,00,
2809917,00000180,false,Rx,0,8,14,82,32,23,3C,00,3F,11,
2809932,00000215,false,Rx,0,6,FF,F4,FF,00,FF,FF,00,00,
2809935,00000421,false,Rx,0,3,08,00,00,00,00,00,00,00,
2814040,00000280,false,Rx,0,8,03,3D,C0,00,00,00,D4,40,
2814053,00000002,false,Rx,0,5,0D,00,00,07,F5,00,00,00,
2818144,00000002,false,Rx,0,5,0D,00,00,07,39,00,00,00,
2818157,000002DE,false,Rx,0,8,02,00,80,04,C0,00,05,D1,
2822182,00000174,false,Rx,0,8,FF,EF,FE,AA,05,00,00,00,
2822198,00000177,false,Rx,0,8,FE,10,00,00,00,F8,00,00,
2822201,00000216,false,Rx,0,2,42,6C,00,00,00,00,00,00,
2826308,0000060D,false,Rx,0,8,06,06,00,00,00,00,00,00,
2826321,00000002,false,Rx,0,5,0D,00,00,07,0A,00,00,00,
2826324,00000215,false,Rx,0,6,FF,F4,FF,00,FF,FF,00,00,
2830410,00000182,false,Rx,0,8,00,00,00,00,00,11,40,CF,
2830423,00000551,false,Rx,0,8,78,85,00,80,FF,02,80,FF,
2834514,00000177,false,Rx,0,8,FE,10,00,00,00,F8,00,00,
2834528,00000280,false,Rx,0,8,03,3F,C0,00,00,00,DB,40,
2838612,00000002,false,Rx,0,5,0D,00,00,07,1B,00,00,00,
2838626,00000160,false,Rx,0,7,33,C3,22,00,08,FF,E8,00,
2838629,00000180,false,Rx,0,8,14,9B,32,23,3C,00,32,11,
2842643,000002DE,false,Rx,0,8,02,00,80,04,C0,00,05,D1,
2842657,00000216,false,Rx,0,2,42,6C,00,00,00,00,00,00,
2846786,0000035D,false,Rx,0,8,80,03,00,00,10,00,00,00,
2846801,00000002,false,Rx,0,5,0D,00,00,07,6C,00,00,00,
2846804,00000215,false,Rx,0,6,FF,F4,FF,00,FF,FF,00,00,
2850877,000002DE,false,Rx,0,8,02,00,80,04,C0,00,05,D1,
2850890,00000177,false,Rx,0,8,FE,10,00,00,00,F8,00,00,
2854948,00000280,false,Rx,0,8,03,3E,C0,00,00,00,DA,40,
2854966,00000160,false,Rx,0,7,33,C3,22,00,08,FF,E8,00,
2859100,00000002,false,Rx,0,5,0D,00,00,07,7D,00,00,00,
2859119,00000284,false,Rx,0,8,00,00,00,00,00,00,9E,24,
2859123,00000176,false,Rx,0,7,00,00,02,4B,00,00,09,00,
2863126,00000177,false,Rx,0,8,FE,10,00,00,00,F8,00,00,
2863140,00000216,false,Rx,0,2,42,6C,00,00,00,00,00,00,
2867274,00000358,false,Rx,0,8,00,88,00,00,00,00,00,00,
2867287,00000002,false,Rx,0,5,0D,00,00,07,4E,00,00,00,
2867290,000002DE,false,Rx,0,8,02,00,80,04,C0,00,05,D1,
2871358,00000160,false,Rx,0,7,33,C3,22,00,08,FF,E8,00,
2871372,000001F9,false,Rx,0,8,28,00,14,9B,00,00,51,A8,
2871374,00000560,false,Rx,0,3,46,70,00,00,00,00,00,00,
2875474,00000280,false,Rx,0,8,03,3F,C0,00,00,00,D8,40,
2875486,00000002,false,Rx,0,5,0D,00,00,07,5F,00,00,00,
2879535,00000625,false,Rx,0,6,02,E0,FF,1D,20,00,00,00,
2879550,00000285,false,Rx,0,8,00,00,00,00,00,00,9F,26,
2883621,00000180,false,Rx,0,8,14,9B,32,23,3C,00,36,11,
2883634,00000216,false,Rx,0,2,42,6C,00,00,00,00,00,00,
2883637,00000351,false,Rx,0,8,00,00,00,00,00,00,00,06,
2887737,00000285,false,Rx,0,8,00,00,00,00,00,00,9E,25,
2887750,00000002,false,Rx,0,5,0D,00,00,07,A0,00,00,00,
2891840,000002DE,false,Rx,0,8,02,00,80,04,C0,00,05,D1,
2891854,000006E2,false,Rx,0,3,00,00,7B,00,00,00,00,00,
2891857,00000280,false,Rx,0,8,03,3C,C0,00,00,00,DC,40,
2895940,000005C5,false,Rx,0,8,44,01,CF,E2,00,0C,00,7F,
2895954,00000215,false,Rx,0,6,FF,F4,FF,00,FF,FF,00,00,
2895957,00000002,false,Rx,0,5,0D,00,00,07,B1,00,00,00,
2900047,00000180,false,Rx,0,8,14,9B,32,33,3C,00,38,11,
2900060,000001F9,false,Rx,0,8,28,00,14,9B,00,00,51,A8,
2904118,0000054C,false,Rx,0,8,79,78,C0,00,00,80,04,08,
2904132,000002DE,false,Rx,0,8,02,00,80,04,C0,00,05,D1,
2908198,00000515,false,Rx,0,4,02,00,00,00,00,00,00,00,
2908212,000002DE,false,Rx,0,8,02,00,80,04,C0,00,05,D1,
2908215,00000176,false,Rx,0,7,00,00,02,47,00,00,0E,00,
2912273,00000182,false,Rx,0,8,00,00,00,00,00,19,40,CF,
2912293,000001F9,false,Rx,0,8,28,00,14,9B,00,00,51,A8,
2916389,00000280,false,Rx,0,8,03,40,C0,00,00,00,D7,40,
2916402,00000002,false,Rx,0,5,0D,00,00,07,93,00,00,00,
2920496,00000284,false,Rx,0,8,00,00,00,00,00,00,A1,27,
2920509,00000174,false,Rx,0,8,FF,EF,FE,AA,0F,00,00,00,
2924612,00000180,false,Rx,0,8,14,9B,32,23,3C,00,3A,11,
2924628,000001F9,false,Rx,0,8,28,00,14,9B,00,00,51,A8,
2924631,00000002,false,Rx,0,5,0D,00,00,07,E4,00,00,00,
2928711,00000215,false,Rx,0,6,FF,F4,FF,00,FF,FF,00,00,
2928725,00000292,false,Rx,0,8,FF,F8,10,80,0F,FE,0F,00,
2932787,00000174,false,Rx,0,8,FF,EF,FE,AA,00,00,00,00,
2932800,00000180,false,Rx,0,8,14,82,32,23,3C,00,3B,11,
2936888,00000280,false,Rx,0,8,03,3E,C0,00,00,00,D6,40,
2936902,00000002,false,Rx,0,5,0D,00,00,07,F5,00,00,00,
2936905,000002DE,false,Rx,0,8,02,00,80,04,C0,00,05,D1,
2941030,00000285,false,Rx,0,8,00,00,00,00,00,00,A2,29,
2941053,00000174,false,Rx,0,8,FF,EF,FE,AA,01,00,00,00,
2945073,00000216,false,Rx,0,2,42,6C,00,00,00,00,00,00,
2945087,0000035D,false,Rx,0,8,80,03,00,00,10,00,00,00,
2945090,00000002,false,Rx,0,5,0D,00,00,07,C6,00,00,00,
2949199,00000215,false,Rx,0,6,FF,F4,FF,00,FF,FF,00,00,
2949218,000002DE,false,Rx,0,8,02,00,80,04,C0,00,05,D1,
2953307,000001F9,false,Rx,0,8,28,00,14,9B,00,00,51,A8,
2953321,00000280,false,Rx,0,8,03,3E,C0,00,00,00,DB,40,
2953324,00000002,false,Rx,0,5,0D,00,00,07,82,00,00,00,
2957401,00000002,false,Rx,0,5,0D,00,00,07,D7,00,00,00,
2957416,00000355,false,Rx,0,7,00,00,00,00,00,00,40,00,
2961499,00000176,false,Rx,0,7,00,00,02,49,00,00,03,00,
2961515,00000177,false,Rx,0,8,FE,10,00,00,00,F8,00,00,
2965663,000001F9,false,Rx,0,8,28,00,14,9B,00,00,51,A8,
2965686,00000216,false,Rx,0,2,42,6C,00,00,00,00,00,00,
2965690,00000215,false,Rx,0,6,FF,F4,FF,00,FF,FF,00,00,
2970314,00000292,false,Rx,0,8,FF,F8,0B,80,0F,FE,0E,00,
2970337,00000245,false,Rx,0,8,FF,E0,00,18,00,00,FF,E1,
2970340,00000560,false,Rx,0,3,46,71,00,00,00,00,00,00,
2973780,00000160,false,Rx,0,7,33,C3,22,00,08,FF,E8,00,
2973796,00000280,false,Rx,0,8,03,3F,C0,00,00,00,DA,40,
2977897,00000002,false,Rx,0,5,0D,00,00,07,39,00,00,00,
2977921,00000625,false,Rx,0,6,02,E0,FF,1D,20,00,00,00,
2977925,000002DE,false,Rx,0,8,02,00,80,04,C0,00,05,D1,
2981986,00000284,false,Rx,0,8,00,00,00,00,00,00,A4,2A,
2982002,00000216,false,Rx,0,2,42,6C,00,00,00,00,00,00,
2986077,00000285,false,Rx,0,8,00,00,00,00,00,00,A3,2A,
2986100,00000351,false,Rx,0,8,00,00,00,00,00,00,00,06,
2986103,00000002,false,Rx,0,5,0D,00,00,07,0A,00,00,00,
2990319,00000215,false,Rx,0,6,FF,F4,FF,00,FF,FF,00,00,
2990342,00000421,false,Rx,0,3,08,00,00,00,00,00,00,00,
2990346,000001F9,false,Rx,0,8,28,00,14,82,00,00,51,A8,
2994255,00000280,false,Rx,0,8,03,3E,C0,00,00,00,D9,40,
2994271,000005C5,false,Rx,0,8,44,01,CF,E2,00,0C,00,7F,
2998362,00000002,false,Rx,0,5,0D,00,00,07,1B,00,00,00,
2998384,00000176,false,Rx,0,7,00,00,02,4B,00,00,07,00,
3002451,00000177,false,Rx,0,8,FE,10,00,00,00,F8,00,00,
3002466,00000216,false,Rx,0,2,42,6C,00,00,00,00,00,00,
3002469,00000180,false,Rx,0,8,14,82,32,23,3C,00,32,11,
3006744,0000054C,false,Rx,0,8,79,78,C0,00,00,80,04,08,
3006767,00000215,false,Rx,0,6,FF,F4,FF,00,FF,FF,00,00,
3010669,000002DE,false,Rx,0,8,02,00,80,04,C0,00,05,D1,
3010691,00000174,false,Rx,0,8,FF,EF,FE,AA,08,00,00,00,
3014731,00000177,false,Rx,0,8,FE,10,00,00,00,F8,00,00,
3014750,00000160,false,Rx,0,7,33,C3,22,00,08,FF,E8,00,
3014753,00000002,false,Rx,0,5,0D,00,00,07,7D,00,00,00,
3018824,000002DE,false,Rx,0,8,02,00,80,04,C0,00,05,D1,
3018840,00000285,false,Rx,0,8,00,00,00,00,00,00,A6,2D,
3023037,00000174,false,Rx,0,8,FF,EF,FE,AA,09,00,00,00,
3023053,00000177,false,Rx,0,8,FE,10,00,00,00,F8,00,00,
3027070,0000060D,false,Rx,0,8,06,06,00,00,00,00,00,00,
3027091,00000002,false,Rx,0,5,0D,00,00,07,4E,00,00,00,
3027095,00000215,false,Rx,0,6,FF,F4,FF,00,FF,FF,00,00,
3031316,000002DE,false,Rx,0,8,02,00,80,04,C0,00,05,D1,
3031339,00000245,false,Rx,0,8,FF,E0,00,18,00,00,FF,E0,
3035238,00000551,false,Rx,0,8,78,86,00,80,FF,02,80,FF,
3035254,000002DE,false,Rx,0,8,02,00,80,04,C0,00,05,D1,
3039356,00000002,false,Rx,0,5,0D,00,00,07,5F,00,00,00,
3039373,000002DE,false,Rx,0,8,02,00,80,04,C0,00,05,D1,
3039377,00000177,false,Rx,0,8,FE,10,00,00,00,F8,00,00,
3043426,00000216,false,Rx,0,2,42,6C,00,00,00,00,00,00,
3043442,00000182,false,Rx,0,8,00,00,00,00,00,16,40,CF,
3047458,000001F9,false,Rx,0,8,28,00,14,B4,00,00,51,A8,
3047476,0000035D,false,Rx,0,8,80,03,00,00,10,00,00,00,
3051631,00000176,false,Rx,0,7,00,00,02,47,00,00,0C,00,
3051644,00000421,false,Rx,0,3,08,00,00,00,00,00,00,00,
3051647,00000285,false,Rx,0,8,00,00,00,00,00,00,A7,2E,
3055708,00000280,false,Rx,0,8,03,3F,C0,00,00,00,D8,40,
3055733,000001F9,false,Rx,0,8,28,00,14,B4,00,00,51,A8,
3059820,00000002,false,Rx,0,5,0D,00,00,07,B1,00,00,00,
3059840,00000284,false,Rx,0,8,00,00,00,00,00,00,A8,2E,
3059843,000002DE,false,Rx,0,8,02,00,80,04,C0,00,05,D1,
3063923,00000177,false,Rx,0,8,FE,10,00,00,00,F8,00,00,
3063939,00000358,false,Rx,0,8,00,88,00,00,00,00,00,00,
3068013,00000002,false,Rx,0,5,0D,00,00,07,82,00,00,00,
3068041,00000215,false,Rx,0,6,FF,F4,FF,00,FF,FF,00,00,
3072046,000002DE,false,Rx,0,8,02,00,80,04,C0,00,05,D1,
3072061,00000245,false,Rx,0,8,FF,E0,00,18,00,00,FF,E2,
3072064,00000180,false,Rx,0,8,14,CD,32,13,3C,00,39,11,
3076181,00000580,false,Rx,0,5,00,82,40,B2,6C,00,00,00,
3076196,00000002,false,Rx,0,5,0D,00,00,07,93,00,00,00,
3080268,00000625,false,Rx,0,6,02,E0,FF,1D,20,00,00,00,
3080281,000002DE,false,Rx,0,8,02,00,80,04,C0,00,05,D1,
3080284,00000216,false,Rx,0,2,42,6C,00,00,00,00,00,00,
3084350,00000160,false,Rx,0,7,33,C3,22,00,08,FF,E8,00,
3084364,00000160,false,Rx,0,7,33,C3,22,00,08,FF,E8,00,
3088467,000001F9,false,Rx,0,8,28,00,14,CD,00,00,51,A8,
3088481,00000351,false,Rx,0,8,00,00,00,00,00,00,00,06,
3088483,00000177,false,Rx,0,8,FE,10,00,00,00,F8,00,00,
3092615,00000180,false,Rx,0,8,14,CD,32,23,3C,00,3A,11,
